 ****** HSPICE -- L-2016.06-SP2 linux64 (Nov 23 2016) ******                    
  Copyright (c) 1986 - 2018 by Synopsys, Inc. All Rights Reserved.              
  This software and the associated documentation are proprietary
  to Synopsys, Inc. This software may only be used in accordance
  with the terms and conditions of a written license agreement with
  Synopsys, Inc. All other use, reproduction, or distribution of
  this software is strictly prohibited.
  Input File: hw1_1e.sp                                                         
  Command line options: /usr/cad/synopsys/hspice/2016.06-sp2/hspice/linux64/hspice -i hw1_1e.sp -o hw2_1e.lis
 lic:  
 lic: FLEXlm: v11.2.1 
 lic: USER:   u105060012           HOSTNAME: ws40 
 lic: HOSTID: "6eae8b50b631"       PID:      19935 
 lic: Using FLEXlm license file: 
 lic: 26585@lscic.cic.org.tw 
 lic: Checkout 1 hspice 
 lic: License/Maintenance for hspice will expire on 14-jun-2018/2017.03 
 lic: 55(in_use)/150(total) FLOATING license(s) on SERVER 26585@lscic.cic.org.tw 
 lic:   
  **info** (hw1_1e.sp:22) No analysis statements before the .print statement that has no analysis type. TRAN type is assigned to it by default.
 

  
      
 *****************************************************************
 ******  option summary
 ******
 runlvl  = 3         bypass  = 2.0000    
 **info** dc convergence successful at Newton-Raphson method 
1****** HSPICE -- L-2016.06-SP2 linux64 (Nov 23 2016) ******                    
 ******  
 hw1_1e

 ****** operating point information tnom=  25.000 temp=  25.000 ******
 ****** operating point status is all       simulation time is     0.     
    node    =voltage      node    =voltage      node    =voltage

 +0:net1    =-371.9225m 0:vbias   =   1.5350  0:vdd     =-422.1723m
 +0:vin     = 476.0000m 0:vout    =-372.1723m 0:vss     =   0.     


 **** voltage sources

 subckt                                   
 element  0:vin      0:vbias    0:vss     
  volts    476.0000m    1.5350     0.     
  current    0.         0.       -51.7248a
  power      0.         0.         0.     

     total voltage source power dissipation=    0.            watts



 **** current sources

 subckt                        
 element  0:i1       0:i3      
  volts    -50.2497m -371.9225m
  current    5.0000u   60.0000u
  power    251.2486n   22.3154u


     total current source power dissipation=  22.5666u       watts

 **** resistors

 subckt             
 element  0:r3      
  r value   10.0000k
  v drop   -50.0000m
  current   -5.0000u
  power    250.0000n



 **** mosfets


 subckt                        
 element  0:m1       0:m3      
 model    0:n_18.1   0:n_18.1  
 region       Linear     Linear
  id       -59.9920u   -4.9964u
  ibs      4.134e-19    3.5547n
  ibd      822.9008p    3.5893n
  vgs      476.0000m    1.9069 
  vds     -371.9225m -249.7109u
  vbs        0.       371.9225m
  vth      274.6055m  386.5286m
  vdsat    441.6459m  905.3888m
  vod      573.3170m    1.5206 
  beta     502.5681u   13.4046m
  gam eff  498.8294m  498.8242m
  gm       177.3096u    2.0030u
  gds       49.7720u   20.0718m
  gmb       19.4830u  512.5488n
  cdtot    101.9357f  133.2932f
  cgtot    105.8002f  109.3413f
  cstot     26.6447f  156.9937f
  cbtot     26.2715f   81.3169f
  cgs        9.0363f   52.7901f
  cgd       95.0852f   55.9707f







 ****     small-signal transfer characteristics

      v(vout)/vin                              =  718.1218m
      input resistance at             vin      =  1.000e+20
      output resistance at v(vout)             =    4.1006k




          ***** job concluded
 ******  
 hw1_1e

 ****** job statistics summary tnom=  25.000 temp=  25.000 ******
  
  
 ******  Machine Information  ******
 CPU:
 model name	: Intel(R) Xeon(R) CPU E5-2620 0 @ 2.00GHz
 cpu MHz	: 1200.000
  
 OS:
 Linux version 2.6.18-371.9.1.el5 (mockbuild@builder17.centos.org) (gcc version 4.1.2 20080704 (Red Hat 4.1.2-54)) #1 SMP Tue Jun 10 17:49:56 EDT 2014


  ******  HSPICE Threads Information  ******

  Command Line Threads Count :     1
  Available CPU Count        :    12
  Actual Threads Count       :     1


  ******  Circuit Statistics  ******
  # nodes       =      11 # elements   =       8
  # resistors   =       1 # capacitors =       0 # inductors   =       0
  # mutual_inds =       0 # vccs       =       0 # vcvs        =       0
  # cccs        =       0 # ccvs       =       0 # volt_srcs   =       3
  # curr_srcs   =       2 # diodes     =       0 # bjts        =       0
  # jfets       =       0 # mosfets    =       2 # U elements  =       0
  # T elements  =       0 # W elements =       0 # B elements  =       0
  # S elements  =       0 # P elements =       0 # va device   =       0
  # vector_srcs =       0 # N elements =       0


  ******  Runtime Statistics (seconds)  ******

  analysis           time    # points   tot. iter  conv.iter
  op point           0.00           1           7
  readin             0.01
  errchk             0.01
  setup              0.00
  output             0.00


           peak memory used        196.29 megabytes
           total cpu time            0.02 seconds
           total elapsed time       20.67 seconds
           job started at     01:46:34 04/09/2018
           job ended   at     01:46:55 04/09/2018


 lic: Release hspice token(s) 
 lic: total license checkout elapse time:       20.63(s)
