 ****** HSPICE -- L-2016.06-SP2 linux64 (Nov 23 2016) ******                    
  Copyright (c) 1986 - 2018 by Synopsys, Inc. All Rights Reserved.              
  This software and the associated documentation are proprietary
  to Synopsys, Inc. This software may only be used in accordance
  with the terms and conditions of a written license agreement with
  Synopsys, Inc. All other use, reproduction, or distribution of
  this software is strictly prohibited.
  Input File: hw2_1a.sp                                                         
  Command line options: /usr/cad/synopsys/hspice/2016.06-sp2/hspice/linux64/hspice -i hw2_1a.sp -o hw2_1a.lis
 lic:  
 lic: FLEXlm: v11.2.1 
 lic: USER:   u105060012           HOSTNAME: ws42 
 lic: HOSTID: "e41f13bfda98"       PID:      29162 
 lic: Using FLEXlm license file: 
 lic: 26585@lscic.cic.org.tw 
 lic: Checkout 1 hspice 
 lic: License/Maintenance for hspice will expire on 14-jun-2018/2017.03 
 lic: 21(in_use)/150(total) FLOATING license(s) on SERVER 26585@lscic.cic.org.tw 
 lic:   
  **info** (hw2_1a.sp:20) No analysis statements before the .probe statement that has no analysis type. TRAN type is assigned to it by default.
 

  
      
 *****************************************************************
 ******  option summary
 ******
 runlvl  = 3         bypass  = 2.0000    
 **info** dc convergence successful at Newton-Raphson method 
1****** HSPICE -- L-2016.06-SP2 linux64 (Nov 23 2016) ******                    
 ******  
 hw2_1a

 ****** operating point information tnom=  25.000 temp=  25.000 ******
 ****** operating point status is all       simulation time is     0.     
    node    =voltage      node    =voltage      node    =voltage

 +0:vdd     =   1.8000  0:vin     = 476.0000m 0:vout    = 889.0013m
 +0:vss     =   0.     


 **** voltage sources

 subckt                                   
 element  0:vin      0:vdd      0:vss     
  volts    476.0000m    1.8000     0.     
  current    0.        -5.0000u -218.8386a
  power      0.         9.0000u    0.     

     total voltage source power dissipation=    9.0000u       watts



 **** current sources

 subckt             
 element  0:i0      
  volts    910.9987m
  current    5.0000u
  power     -4.5550u


     total current source power dissipation=  -4.5550u       watts


 **** mosfets


 subckt             
 element  0:m0      
 model    0:n_18.1  
 region     Saturati
  id         5.0000u
  ibs     -8.848e-22
  ibd     -378.1803a
  vgs      476.0000m
  vds      889.0013m
  vbs        0.     
  vth      336.9156m
  vdsat    136.3351m
  vod      139.0844m
  beta     502.8981u
  gam eff  507.4460m
  gm        58.4463u
  gds      413.8998n
  gmb       11.5710u
  cdtot      6.5283f
  cgtot     99.4439f
  cstot    104.5593f
  cbtot     35.9207f
  cgs       89.3663f
  cgd        1.6672f







 ****     small-signal transfer characteristics

      v(vout)/vin                              = -141.2082 
      input resistance at             vin      =  1.000e+20
      output resistance at v(vout)             =    2.4161x




          ***** job concluded
 ******  
 hw2_1a

 ****** job statistics summary tnom=  25.000 temp=  25.000 ******
  
  
 ******  Machine Information  ******
 CPU:
 model name	: Intel(R) Xeon(R) CPU           E5620  @ 2.40GHz
 cpu MHz	: 1596.000
  
 OS:
 Linux version 2.6.18-274.el5 (mockbuild@builder10.centos.org) (gcc version 4.1.2 20080704 (Red Hat 4.1.2-50)) #1 SMP Fri Jul 22 04:43:29 EDT 2011


  ******  HSPICE Threads Information  ******

  Command Line Threads Count :     1
  Available CPU Count        :     8
  Actual Threads Count       :     1


  ******  Circuit Statistics  ******
  # nodes       =       7 # elements   =       5
  # resistors   =       0 # capacitors =       0 # inductors   =       0
  # mutual_inds =       0 # vccs       =       0 # vcvs        =       0
  # cccs        =       0 # ccvs       =       0 # volt_srcs   =       3
  # curr_srcs   =       1 # diodes     =       0 # bjts        =       0
  # jfets       =       0 # mosfets    =       1 # U elements  =       0
  # T elements  =       0 # W elements =       0 # B elements  =       0
  # S elements  =       0 # P elements =       0 # va device   =       0
  # vector_srcs =       0 # N elements =       0


  ******  Runtime Statistics (seconds)  ******

  analysis           time    # points   tot. iter  conv.iter
  op point           0.00           1           7
  readin             0.01
  errchk             0.00
  setup              0.00
  output             0.00


           peak memory used        195.38 megabytes
           total cpu time            0.02 seconds
           total elapsed time       20.63 seconds
           job started at     15:57:30 04/08/2018
           job ended   at     15:57:50 04/08/2018


 lic: Release hspice token(s) 
 lic: total license checkout elapse time:       20.61(s)
