Using: /usr/bin/time -p /usr/cad/synopsys/hspice/cur/hspice/linux/hspice 1a.sp
 ****** HSPICE -- B-2008.09-SP1 32-BIT (Nov 24 2008) linux ******               
  Copyright (C) 2008 Synopsys, Inc. All Rights Reserved.                        
  Unpublished-rights reserved under US copyright laws.
  This program is protected by law and is subject to the 
  terms and conditions of the license agreement from Synopsys.
  Use of this program is your acceptance to be bound by the 
  license agreement. HSPICE is the trademark of Synopsys, Inc.
  Input File: 1a.sp                                                             
 lic:  
 lic: FLEXlm: v8.5b 
 lic: USER:   u102061112           HOSTNAME: ws36 
 lic: HOSTID: e41f1366b708         PID:      12307 
 lic: Using FLEXlm license file: 
 lic: 26585@lsnctu 
 lic: Checkout 1 hspice 
 lic: License/Maintenance for hspice will expire on 14-may-2016/2015.06 
 lic: FLOATING license(s) on SERVER lsnctu 
 lic:   
 Init: read install configuration file: /usr/cad/synopsys/hspice/cur/hspice/meta.cfg
 Init: hspice initialization file: /usr/cad/synopsys/hspice/cur/hspice/hspice.ini
 .option runlvl
 .option post=1 acct captab acout=0

 *m3 vp vp gnd gnd n_18 w=10u l=0.5u m=1
 m3 vp vb gnd gnd n_18 w=10u l=0.5u m=1
 m2 vout+ vin- vp gnd n_18 w=84u l=2.8u m=1
 m1 vout- vin+ vp gnd n_18 w=84u l=2.8u m=1


 r1 vdd vout- 100k 
 r0 vdd vout+ 100k 

 ******source******
 *i0 vdd vp 20u
 vdd vdd 0 dc=1.8
 vin+ vin+ 0 dc 0.9 ac 0.5 0
 vin- vin- 0 dc 0.9 ac 0.5 180
 vb vb 0 dc=0.49

 ******analysis******
 .op
 .ac dec 100 1 100meg
 .probe vdb(vout+,vout-)
 .print vdb(vout+,vout-)

 .alter
 

 
      
1****** HSPICE -- B-2008.09-SP1 32-BIT (Nov 24 2008) linux ******               
 ******  
 *3.1

  ******  operating point information tnom=  25.000 temp=  25.000 *****
 ***** operating point status is all       simulation time is     0.     
    node    =voltage      node    =voltage      node    =voltage

 +0:vb      = 490.0000m 0:vdd     =   1.8000  0:vin+    = 900.0000m
 +0:vin-    = 900.0000m 0:vout+   = 797.2159m 0:vout-   = 797.2159m
 +0:vp      = 469.7493m


 maximum nodal capacitance=   1.816E-12         on node     0:vp              

    nodal  capacitance table 

    node    =    cap      node    =    cap      node    =    cap

 +0:vb      =  33.3793f 0:vdd     =   0.      0:vin+    =   1.0010p
 +0:vin-    =   1.0010p 0:vout+   = 109.8035f 0:vout-   = 109.8035f
 +0:vp      =   1.8163p

 

 ****  voltage sources

 subckt                                              
 element  0:vdd      0:vin+     0:vin-     0:vb      
  volts      1.8000   900.0000m  900.0000m  490.0000m
  current  -20.0557u    0.         0.         0.     
  power     36.1002u    0.         0.         0.     

     total voltage source power dissipation=   36.1002u       watts



 **** resistors

 subckt                        
 element  0:r1       0:r0      
  r value  100.0000k  100.0000k
  v drop     1.0028     1.0028 
  current   10.0278u   10.0278u
  power     10.0558u   10.0558u



 **** mosfets


 subckt                                   
 element  0:m3       0:m2       0:m1      
 model    0:n_18.1   0:n_18.1   0:n_18.1  
 region     Saturati   Saturati   Saturati
  id        20.0557u   10.0278u   10.0278u
  ibs     -3.245e-21   -2.8168f   -2.8168f
  ibd     -365.4617a   -4.7805f   -4.7805f
  vgs      490.0000m  430.2507m  430.2507m
  vds      469.7493m  327.4665m  327.4665m
  vbs        0.      -469.7493m -469.7493m
  vth      443.4527m  426.6507m  426.6507m
  vdsat     92.6188m   63.8755m   63.8755m
  vod       46.5473m    3.6000m    3.6000m
  beta       6.4796m    9.1525m    9.1525m
  gam eff  507.4460m  519.2189m  519.2189m
  gm       352.0582u  220.3366u  220.3366u
  gds        5.8126u    1.9649u    1.9649u
  gmb       68.7080u   36.5808u   36.5808u
  cdtot     13.9076f  109.8035f  109.8035f
  cgtot     33.3793f    1.0010p    1.0010p
  cstot     40.2628f  901.1976f  901.1976f
  cbtot     29.4673f  486.0529f  486.0529f
  cgs       26.2017f  760.2138f  760.2138f
  cgd        3.6523f   29.2857f   29.2857f



 ******  
 *3.1

  ******  ac analysis tnom=  25.000 temp=  25.000 *****
x

        freq    volt db    
                   vout+   
                   vout-   
    1.00000      25.3035   
    1.02329      25.3035   
    1.04713      25.3035   
    1.07152      25.3035   
    1.09648      25.3035   
    1.12202      25.3035   
    1.14815      25.3035   
    1.17490      25.3035   
    1.20226      25.3035   
    1.23027      25.3035   
    1.25893      25.3035   
    1.28825      25.3035   
    1.31826      25.3035   
    1.34896      25.3035   
    1.38038      25.3035   
    1.41254      25.3035   
    1.44544      25.3035   
    1.47911      25.3035   
    1.51356      25.3035   
    1.54882      25.3035   
    1.58489      25.3035   
    1.62181      25.3035   
    1.65959      25.3035   
    1.69824      25.3035   
    1.73780      25.3035   
    1.77828      25.3035   
    1.81970      25.3035   
    1.86209      25.3035   
    1.90546      25.3035   
    1.94984      25.3035   
    1.99526      25.3035   
    2.04174      25.3035   
    2.08930      25.3035   
    2.13796      25.3035   
    2.18776      25.3035   
    2.23872      25.3035   
    2.29087      25.3035   
    2.34423      25.3035   
    2.39883      25.3035   
    2.45471      25.3035   
    2.51189      25.3035   
    2.57040      25.3035   
    2.63027      25.3035   
    2.69153      25.3035   
    2.75423      25.3035   
    2.81838      25.3035   
    2.88403      25.3035   
    2.95121      25.3035   
    3.01995      25.3035   
    3.09030      25.3035   
    3.16228      25.3035   
    3.23594      25.3035   
    3.31131      25.3035   
    3.38844      25.3035   
    3.46737      25.3035   
    3.54813      25.3035   
    3.63078      25.3035   
    3.71535      25.3035   
    3.80189      25.3035   
    3.89045      25.3035   
    3.98107      25.3035   
    4.07380      25.3035   
    4.16869      25.3035   
    4.26580      25.3035   
    4.36516      25.3035   
    4.46684      25.3035   
    4.57088      25.3035   
    4.67735      25.3035   
    4.78630      25.3035   
    4.89779      25.3035   
    5.01187      25.3035   
    5.12861      25.3035   
    5.24807      25.3035   
    5.37032      25.3035   
    5.49541      25.3035   
    5.62341      25.3035   
    5.75440      25.3035   
    5.88844      25.3035   
    6.02560      25.3035   
    6.16595      25.3035   
    6.30957      25.3035   
    6.45654      25.3035   
    6.60693      25.3035   
    6.76083      25.3035   
    6.91831      25.3035   
    7.07946      25.3035   
    7.24436      25.3035   
    7.41310      25.3035   
    7.58578      25.3035   
    7.76247      25.3035   
    7.94328      25.3035   
    8.12831      25.3035   
    8.31764      25.3035   
    8.51138      25.3035   
    8.70964      25.3035   
    8.91251      25.3035   
    9.12011      25.3035   
    9.33254      25.3035   
    9.54993      25.3035   
    9.77237      25.3035   
   10.00000      25.3035   
   10.23293      25.3035   
   10.47129      25.3035   
   10.71519      25.3035   
   10.96478      25.3035   
   11.22018      25.3035   
   11.48154      25.3035   
   11.74898      25.3035   
   12.02264      25.3035   
   12.30269      25.3035   
   12.58925      25.3035   
   12.88250      25.3035   
   13.18257      25.3035   
   13.48963      25.3035   
   13.80384      25.3035   
   14.12538      25.3035   
   14.45440      25.3035   
   14.79108      25.3035   
   15.13561      25.3035   
   15.48817      25.3035   
   15.84893      25.3035   
   16.21810      25.3035   
   16.59587      25.3035   
   16.98244      25.3035   
   17.37801      25.3035   
   17.78279      25.3035   
   18.19701      25.3035   
   18.62087      25.3035   
   19.05461      25.3035   
   19.49845      25.3035   
   19.95262      25.3035   
   20.41738      25.3035   
   20.89296      25.3035   
   21.37962      25.3035   
   21.87762      25.3035   
   22.38721      25.3035   
   22.90868      25.3035   
   23.44229      25.3035   
   23.98833      25.3035   
   24.54709      25.3035   
   25.11886      25.3035   
   25.70396      25.3035   
   26.30268      25.3035   
   26.91535      25.3035   
   27.54229      25.3035   
   28.18383      25.3035   
   28.84032      25.3035   
   29.51209      25.3035   
   30.19952      25.3035   
   30.90295      25.3035   
   31.62278      25.3035   
   32.35937      25.3035   
   33.11311      25.3035   
   33.88442      25.3035   
   34.67369      25.3035   
   35.48134      25.3035   
   36.30781      25.3035   
   37.15352      25.3035   
   38.01894      25.3035   
   38.90451      25.3035   
   39.81072      25.3035   
   40.73803      25.3035   
   41.68694      25.3035   
   42.65795      25.3035   
   43.65158      25.3035   
   44.66836      25.3035   
   45.70882      25.3035   
   46.77351      25.3035   
   47.86301      25.3035   
   48.97788      25.3035   
   50.11872      25.3035   
   51.28614      25.3035   
   52.48075      25.3035   
   53.70318      25.3035   
   54.95409      25.3035   
   56.23413      25.3035   
   57.54399      25.3035   
   58.88437      25.3035   
   60.25596      25.3035   
   61.65950      25.3035   
   63.09573      25.3035   
   64.56542      25.3035   
   66.06934      25.3035   
   67.60830      25.3035   
   69.18310      25.3035   
   70.79458      25.3035   
   72.44360      25.3035   
   74.13102      25.3035   
   75.85776      25.3035   
   77.62471      25.3035   
   79.43282      25.3035   
   81.28305      25.3035   
   83.17638      25.3035   
   85.11380      25.3035   
   87.09636      25.3035   
   89.12509      25.3035   
   91.20108      25.3035   
   93.32543      25.3035   
   95.49926      25.3035   
   97.72372      25.3035   
  100.00000      25.3035   
  102.32930      25.3035   
  104.71285      25.3035   
  107.15193      25.3035   
  109.64782      25.3035   
  112.20185      25.3035   
  114.81536      25.3035   
  117.48976      25.3035   
  120.22644      25.3035   
  123.02688      25.3035   
  125.89254      25.3035   
  128.82496      25.3035   
  131.82567      25.3035   
  134.89629      25.3035   
  138.03843      25.3035   
  141.25375      25.3035   
  144.54398      25.3035   
  147.91084      25.3035   
  151.35612      25.3035   
  154.88166      25.3035   
  158.48932      25.3035   
  162.18101      25.3035   
  165.95869      25.3035   
  169.82437      25.3035   
  173.78008      25.3035   
  177.82794      25.3035   
  181.97009      25.3035   
  186.20871      25.3035   
  190.54607      25.3035   
  194.98446      25.3035   
  199.52623      25.3035   
  204.17379      25.3035   
  208.92961      25.3035   
  213.79621      25.3035   
  218.77616      25.3035   
  223.87211      25.3035   
  229.08677      25.3035   
  234.42288      25.3035   
  239.88329      25.3035   
  245.47089      25.3035   
  251.18864      25.3035   
  257.03958      25.3035   
  263.02680      25.3035   
  269.15348      25.3035   
  275.42287      25.3035   
  281.83829      25.3035   
  288.40315      25.3035   
  295.12092      25.3035   
  301.99517      25.3035   
  309.02954      25.3035   
  316.22777      25.3035   
  323.59366      25.3035   
  331.13112      25.3035   
  338.84416      25.3035   
  346.73685      25.3035   
  354.81339      25.3035   
  363.07805      25.3035   
  371.53523      25.3035   
  380.18940      25.3035   
  389.04514      25.3035   
  398.10717      25.3035   
  407.38028      25.3035   
  416.86938      25.3035   
  426.57952      25.3035   
  436.51583      25.3035   
  446.68359      25.3035   
  457.08819      25.3035   
  467.73514      25.3035   
  478.63009      25.3035   
  489.77882      25.3035   
  501.18723      25.3035   
  512.86138      25.3035   
  524.80746      25.3035   
  537.03180      25.3035   
  549.54087      25.3035   
  562.34133      25.3035   
  575.43994      25.3035   
  588.84366      25.3035   
  602.55959      25.3035   
  616.59500      25.3035   
  630.95734      25.3035   
  645.65423      25.3035   
  660.69345      25.3035   
  676.08298      25.3035   
  691.83097      25.3035   
  707.94578      25.3035   
  724.43596      25.3035   
  741.31024      25.3035   
  758.57758      25.3035   
  776.24712      25.3035   
  794.32823      25.3035   
  812.83052      25.3035   
  831.76377      25.3035   
  851.13804      25.3035   
  870.96359      25.3035   
  891.25094      25.3035   
  912.01084      25.3035   
  933.25430      25.3035   
  954.99259      25.3035   
  977.23722      25.3035   
    1.00000k     25.3035   
    1.02329k     25.3035   
    1.04713k     25.3035   
    1.07152k     25.3035   
    1.09648k     25.3035   
    1.12202k     25.3035   
    1.14815k     25.3035   
    1.17490k     25.3035   
    1.20226k     25.3035   
    1.23027k     25.3035   
    1.25893k     25.3035   
    1.28825k     25.3035   
    1.31826k     25.3035   
    1.34896k     25.3035   
    1.38038k     25.3035   
    1.41254k     25.3035   
    1.44544k     25.3035   
    1.47911k     25.3035   
    1.51356k     25.3035   
    1.54882k     25.3035   
    1.58489k     25.3035   
    1.62181k     25.3035   
    1.65959k     25.3035   
    1.69824k     25.3035   
    1.73780k     25.3035   
    1.77828k     25.3035   
    1.81970k     25.3035   
    1.86209k     25.3035   
    1.90546k     25.3035   
    1.94984k     25.3035   
    1.99526k     25.3035   
    2.04174k     25.3035   
    2.08930k     25.3035   
    2.13796k     25.3035   
    2.18776k     25.3035   
    2.23872k     25.3035   
    2.29087k     25.3035   
    2.34423k     25.3035   
    2.39883k     25.3035   
    2.45471k     25.3035   
    2.51189k     25.3035   
    2.57040k     25.3035   
    2.63027k     25.3035   
    2.69153k     25.3035   
    2.75423k     25.3035   
    2.81838k     25.3035   
    2.88403k     25.3035   
    2.95121k     25.3035   
    3.01995k     25.3035   
    3.09030k     25.3035   
    3.16228k     25.3035   
    3.23594k     25.3035   
    3.31131k     25.3035   
    3.38844k     25.3035   
    3.46737k     25.3035   
    3.54813k     25.3035   
    3.63078k     25.3035   
    3.71535k     25.3035   
    3.80189k     25.3035   
    3.89045k     25.3035   
    3.98107k     25.3035   
    4.07380k     25.3035   
    4.16869k     25.3035   
    4.26580k     25.3035   
    4.36516k     25.3035   
    4.46684k     25.3035   
    4.57088k     25.3035   
    4.67735k     25.3035   
    4.78630k     25.3035   
    4.89779k     25.3035   
    5.01187k     25.3035   
    5.12861k     25.3035   
    5.24807k     25.3035   
    5.37032k     25.3035   
    5.49541k     25.3035   
    5.62341k     25.3035   
    5.75440k     25.3035   
    5.88844k     25.3035   
    6.02560k     25.3035   
    6.16595k     25.3035   
    6.30957k     25.3035   
    6.45654k     25.3035   
    6.60693k     25.3035   
    6.76083k     25.3035   
    6.91831k     25.3035   
    7.07946k     25.3035   
    7.24436k     25.3035   
    7.41310k     25.3035   
    7.58578k     25.3035   
    7.76247k     25.3035   
    7.94328k     25.3035   
    8.12831k     25.3035   
    8.31764k     25.3035   
    8.51138k     25.3035   
    8.70964k     25.3035   
    8.91251k     25.3035   
    9.12011k     25.3035   
    9.33254k     25.3035   
    9.54993k     25.3035   
    9.77237k     25.3035   
   10.00000k     25.3035   
   10.23293k     25.3035   
   10.47129k     25.3035   
   10.71519k     25.3035   
   10.96478k     25.3035   
   11.22018k     25.3035   
   11.48154k     25.3035   
   11.74898k     25.3035   
   12.02264k     25.3035   
   12.30269k     25.3035   
   12.58925k     25.3035   
   12.88250k     25.3035   
   13.18257k     25.3035   
   13.48963k     25.3035   
   13.80384k     25.3035   
   14.12538k     25.3035   
   14.45440k     25.3035   
   14.79108k     25.3035   
   15.13561k     25.3035   
   15.48817k     25.3035   
   15.84893k     25.3035   
   16.21810k     25.3035   
   16.59587k     25.3035   
   16.98244k     25.3035   
   17.37801k     25.3035   
   17.78279k     25.3035   
   18.19701k     25.3035   
   18.62087k     25.3035   
   19.05461k     25.3035   
   19.49845k     25.3035   
   19.95262k     25.3035   
   20.41738k     25.3035   
   20.89296k     25.3035   
   21.37962k     25.3035   
   21.87762k     25.3035   
   22.38721k     25.3035   
   22.90868k     25.3035   
   23.44229k     25.3035   
   23.98833k     25.3035   
   24.54709k     25.3035   
   25.11886k     25.3035   
   25.70396k     25.3035   
   26.30268k     25.3035   
   26.91535k     25.3035   
   27.54229k     25.3035   
   28.18383k     25.3035   
   28.84032k     25.3035   
   29.51209k     25.3035   
   30.19952k     25.3035   
   30.90295k     25.3035   
   31.62278k     25.3035   
   32.35937k     25.3035   
   33.11311k     25.3035   
   33.88442k     25.3035   
   34.67369k     25.3035   
   35.48134k     25.3035   
   36.30781k     25.3035   
   37.15352k     25.3035   
   38.01894k     25.3035   
   38.90451k     25.3035   
   39.81072k     25.3035   
   40.73803k     25.3035   
   41.68694k     25.3035   
   42.65795k     25.3035   
   43.65158k     25.3035   
   44.66836k     25.3035   
   45.70882k     25.3035   
   46.77351k     25.3035   
   47.86301k     25.3035   
   48.97788k     25.3035   
   50.11872k     25.3035   
   51.28614k     25.3035   
   52.48075k     25.3035   
   53.70318k     25.3035   
   54.95409k     25.3035   
   56.23413k     25.3035   
   57.54399k     25.3035   
   58.88437k     25.3035   
   60.25596k     25.3035   
   61.65950k     25.3035   
   63.09573k     25.3035   
   64.56542k     25.3035   
   66.06934k     25.3035   
   67.60830k     25.3035   
   69.18310k     25.3035   
   70.79458k     25.3035   
   72.44360k     25.3035   
   74.13102k     25.3034   
   75.85776k     25.3034   
   77.62471k     25.3034   
   79.43282k     25.3034   
   81.28305k     25.3034   
   83.17638k     25.3034   
   85.11380k     25.3034   
   87.09636k     25.3034   
   89.12509k     25.3034   
   91.20108k     25.3034   
   93.32543k     25.3034   
   95.49926k     25.3034   
   97.72372k     25.3034   
  100.00000k     25.3034   
  102.32930k     25.3034   
  104.71285k     25.3034   
  107.15193k     25.3034   
  109.64782k     25.3034   
  112.20185k     25.3033   
  114.81536k     25.3033   
  117.48976k     25.3033   
  120.22644k     25.3033   
  123.02688k     25.3033   
  125.89254k     25.3033   
  128.82496k     25.3033   
  131.82567k     25.3033   
  134.89629k     25.3033   
  138.03843k     25.3033   
  141.25375k     25.3032   
  144.54398k     25.3032   
  147.91084k     25.3032   
  151.35612k     25.3032   
  154.88166k     25.3032   
  158.48932k     25.3032   
  162.18101k     25.3031   
  165.95869k     25.3031   
  169.82437k     25.3031   
  173.78008k     25.3031   
  177.82794k     25.3031   
  181.97009k     25.3031   
  186.20871k     25.3030   
  190.54607k     25.3030   
  194.98446k     25.3030   
  199.52623k     25.3030   
  204.17379k     25.3029   
  208.92961k     25.3029   
  213.79621k     25.3029   
  218.77616k     25.3028   
  223.87211k     25.3028   
  229.08677k     25.3028   
  234.42288k     25.3027   
  239.88329k     25.3027   
  245.47089k     25.3027   
  251.18864k     25.3026   
  257.03958k     25.3026   
  263.02680k     25.3025   
  269.15348k     25.3025   
  275.42287k     25.3024   
  281.83829k     25.3024   
  288.40315k     25.3023   
  295.12092k     25.3023   
  301.99517k     25.3022   
  309.02954k     25.3021   
  316.22777k     25.3021   
  323.59366k     25.3020   
  331.13112k     25.3019   
  338.84416k     25.3019   
  346.73685k     25.3018   
  354.81339k     25.3017   
  363.07805k     25.3016   
  371.53523k     25.3015   
  380.18940k     25.3014   
  389.04514k     25.3013   
  398.10717k     25.3012   
  407.38028k     25.3011   
