Using: /usr/bin/time -p /usr/cad/synopsys/hspice/cur/hspice/linux/hspice 1b.sp
 ****** HSPICE -- B-2008.09-SP1 32-BIT (Nov 24 2008) linux ******               
  Copyright (C) 2008 Synopsys, Inc. All Rights Reserved.                        
  Unpublished-rights reserved under US copyright laws.
  This program is protected by law and is subject to the 
  terms and conditions of the license agreement from Synopsys.
  Use of this program is your acceptance to be bound by the 
  license agreement. HSPICE is the trademark of Synopsys, Inc.
  Input File: 1b.sp                                                             
 lic:  
 lic: FLEXlm: v8.5b 
 lic: USER:   u102061112           HOSTNAME: ws36 
 lic: HOSTID: e41f1366b708         PID:      9242 
 lic: Using FLEXlm license file: 
 lic: 26585@lsnctu 
 lic: Checkout 1 hspice 
 lic: License/Maintenance for hspice will expire on 14-may-2016/2015.06 
 lic: FLOATING license(s) on SERVER lsnctu 
 lic:   
 Init: read install configuration file: /usr/cad/synopsys/hspice/cur/hspice/meta.cfg
 Init: hspice initialization file: /usr/cad/synopsys/hspice/cur/hspice/hspice.ini
 .option runlvl
 .option post=1 acct captab acout=0


 m3 vp vb gnd gnd n_18 w=10u l=0.5u m=1
 m2 vout+ vin- vp gnd n_18 w=92.4u l=2.8u m=1
 m1 vout- vin+ vp gnd n_18 w=84u l=2.8u m=1


 r1 vdd vout- 100k *$[rp]
 r0 vdd vout+ 100k *$[rp]

 ******source******

 vdd vdd 0 dc=1.8
 vin+ vin+ 0 dc 0.9 ac=1
 vin- vin- 0 dc 0.9 ac=1
 vb vb 0 dc=0.49    *0.4895

 *.alter  ****acm with cp
 *cp vp 0 100f
 *vin+ vin+ 0 dc 0.9 ac=1
 *vin- vin- 0 dc 0.9 ac=1

 ******analysis******
 .op
 .ac dec 100m 1 1g
 .probe vdb(vout+,vout-)
 .print vdb(vout+,vout-)


 *****adm without cp
 .alter
 

 
      
1****** HSPICE -- B-2008.09-SP1 32-BIT (Nov 24 2008) linux ******               
 ******  
 *3.1

  ******  operating point information tnom=  25.000 temp=  25.000 *****
 ***** operating point status is all       simulation time is     0.     
    node    =voltage      node    =voltage      node    =voltage

 +0:vb      = 490.0000m 0:vdd     =   1.8000  0:vin+    = 900.0000m
 +0:vin-    = 900.0000m 0:vout+   = 756.5263m 0:vout-   = 836.8283m
 +0:vp      = 471.6036m


 maximum nodal capacitance=   1.841E-12         on node     0:vp              

    nodal  capacitance table 

    node    =    cap      node    =    cap      node    =    cap

 +0:vb      =  33.3816f 0:vdd     =   0.      0:vin+    = 978.9792f
 +0:vin-    =   1.0721p 0:vout+   = 121.8681f 0:vout-   = 108.8999f
 +0:vp      =   1.8413p

 

 ****  voltage sources

 subckt                                              
 element  0:vdd      0:vin+     0:vin-     0:vb      
  volts      1.8000   900.0000m  900.0000m  490.0000m
  current  -20.0665u    0.         0.         0.     
  power     36.1196u    0.         0.         0.     

     total voltage source power dissipation=   36.1196u       watts



 **** resistors

 subckt                        
 element  0:r1       0:r0      
  r value  100.0000k  100.0000k
  v drop   963.1717m    1.0435 
  current    9.6317u   10.4347u
  power      9.2770u   10.8884u



 **** mosfets


 subckt                                   
 element  0:m3       0:m2       0:m1      
 model    0:n_18.1   0:n_18.1   0:n_18.1  
 region     Saturati   Saturati   Saturati
  id        20.0665u   10.4347u    9.6317u
  ibs     -3.247e-21   -3.1073f   -2.8280f
  ibd     -366.9043a   -4.9846f   -5.0180f
  vgs      490.0000m  428.3964m  428.3964m
  vds      471.6036m  284.9227m  365.2247m
  vbs        0.      -471.6036m -471.6036m
  vth      443.4287m  427.1945m  426.7406m
  vdsat     92.6322m   62.9459m   63.1123m
  vod       46.5713m    1.2019m    1.6559m
  beta       6.4796m   10.0680m    9.1524m
  gam eff  507.4460m  519.2609m  519.2609m
  gm       352.2155u  231.1341u  212.9797u
  gds        5.8065u    2.1281u    1.8651u
  gmb       68.7356u   38.3990u   35.3127u
  cdtot     13.9021f  121.8681f  108.8999f
  cgtot     33.3816f    1.0721p  978.9792f
  cstot     40.2661f  953.6858f  873.7306f
  cbtot     29.4620f  534.9502f  484.9210f
  cgs       26.2044f  802.1354f  734.3510f
  cgd        3.6522f   32.5123f   29.3132f



 ******  
 *3.1

  ******  ac analysis tnom=  25.000 temp=  25.000 *****
x

        freq    volt db    
                   vout+   
                   vout-   
    1.00000     -52.1064   
   10.00000     -52.1064   
  100.00000     -52.1064   
    1.00000k    -52.1064   
   10.00000k    -52.1063   
  100.00000k    -52.0997   
    1.00000x    -51.4827   
   10.00000x    -38.5889   
  100.00000x    -37.6025   
    1.00000g    -56.3496   
y

          ***** job concluded
1****** HSPICE -- B-2008.09-SP1 32-BIT (Nov 24 2008) linux ******               
 ******  
 *3.1

  ******  job statistics summary tnom=  25.000 temp=  25.000 *****

  ******  HSPICE Threads Information  ******
  Command Line Threads Count:                      0
  Available CPU Count:                             8
  Actual Model Evaluation(Load) Threads Count:     1
  Actual Solver Threads Count:                     1


  ******  Circuit Statistics  ******
  # nodes       =      14  # elements   =       9
  # resistors   =       2  # capacitors =       0  # inductors   =       0
  # mutual_inds =       0  # vccs       =       0  # vcvs        =       0
  # cccs        =       0  # ccvs       =       0  # volt_srcs   =       4
  # curr_srcs   =       0  # diodes     =       0  # bjts        =       0
  # jfets       =       0  # mosfets    =       3  # U elements  =       0
  # T elements  =       0  # W elements =       0  # B elements  =       0
  # S elements  =       0  # P elements =       0  # va device   =       0


  ******  Runtime Statistics (seconds)  ******

  analysis           time    # points   tot. iter  conv.iter
  op point           0.00           1           7
  ac analysis        0.00          10          10
  readin             0.02
  errchk             0.00
  setup              0.00
  output             0.00


           total memory used          195  kbytes
           total cpu time            0.02 seconds
           total elapsed time        0.16 seconds
           job started at     20:36:32 05/04/2016
           job ended   at     20:36:33 05/04/2016


1****** HSPICE -- B-2008.09-SP1 32-BIT (Nov 24 2008) linux ******               
 ******  
 

  ******    alter processing listing tnom=  25.000 temp=  25.000 *****
 vin+ vin+ 0 dc 0.9 ac=0.5 180
 vin- vin- 0 dc 0.9 ac=0.5 0

 *****adm with cp
 *.alter
 *cp vp 0 100f
 *vin+ vin+ 0 dc 0.9 ac=0.5 180
 *vin- vin- 0 dc 0.9 ac=0.5 0

 .end
 $ end of alter processing $
 
      
1****** HSPICE -- B-2008.09-SP1 32-BIT (Nov 24 2008) linux ******               
 ******  
 *3.1

  ******  operating point information tnom=  25.000 temp=  25.000 *****
 ***** operating point status is all       simulation time is     0.     
    node    =voltage      node    =voltage      node    =voltage

 +0:vb      = 490.0000m 0:vdd     =   1.8000  0:vin+    = 900.0000m
 +0:vin-    = 900.0000m 0:vout+   = 756.5263m 0:vout-   = 836.8283m
 +0:vp      = 471.6036m


 maximum nodal capacitance=   1.841E-12         on node     0:vp              

    nodal  capacitance table 

    node    =    cap      node    =    cap      node    =    cap

 +0:vb      =  33.3816f 0:vdd     =   0.      0:vin+    = 978.9792f
 +0:vin-    =   1.0721p 0:vout+   = 121.8681f 0:vout-   = 108.8999f
 +0:vp      =   1.8413p

 

 ****  voltage sources

 subckt                                              
 element  0:vdd      0:vin+     0:vin-     0:vb      
  volts      1.8000   900.0000m  900.0000m  490.0000m
  current  -20.0665u    0.         0.         0.     
  power     36.1196u    0.         0.         0.     

     total voltage source power dissipation=   36.1196u       watts



 **** resistors

 subckt                        
 element  0:r1       0:r0      
  r value  100.0000k  100.0000k
  v drop   963.1717m    1.0435 
  current    9.6317u   10.4347u
  power      9.2770u   10.8884u



 **** mosfets


 subckt                                   
 element  0:m3       0:m2       0:m1      
 model    0:n_18.1   0:n_18.1   0:n_18.1  
 region     Saturati   Saturati   Saturati
  id        20.0665u   10.4347u    9.6317u
  ibs     -3.247e-21   -3.1073f   -2.8280f
  ibd     -366.9043a   -4.9846f   -5.0180f
  vgs      490.0000m  428.3964m  428.3964m
  vds      471.6036m  284.9227m  365.2247m
  vbs        0.      -471.6036m -471.6036m
  vth      443.4287m  427.1945m  426.7406m
  vdsat     92.6322m   62.9459m   63.1123m
  vod       46.5713m    1.2019m    1.6559m
  beta       6.4796m   10.0680m    9.1524m
  gam eff  507.4460m  519.2609m  519.2609m
  gm       352.2155u  231.1341u  212.9797u
  gds        5.8065u    2.1281u    1.8651u
  gmb       68.7356u   38.3990u   35.3127u
  cdtot     13.9021f  121.8681f  108.8999f
  cgtot     33.3816f    1.0721p  978.9792f
  cstot     40.2661f  953.6858f  873.7306f
  cbtot     29.4620f  534.9502f  484.9210f
  cgs       26.2044f  802.1354f  734.3510f
  cgd        3.6522f   32.5123f   29.3132f



 ******  
 *3.1

  ******  ac analysis tnom=  25.000 temp=  25.000 *****
x

        freq    volt db    
                   vout+   
                   vout-   
    1.00000      25.3375   
   10.00000      25.3375   
  100.00000      25.3375   
    1.00000k     25.3375   
   10.00000k     25.3375   
  100.00000k     25.3373   
    1.00000x     25.3215   
   10.00000x     23.9824   
  100.00000x      9.6660   
    1.00000g     -6.9292   
y

          ***** job concluded
1****** HSPICE -- B-2008.09-SP1 32-BIT (Nov 24 2008) linux ******               
 ******  
 *3.1

  ******  job statistics summary tnom=  25.000 temp=  25.000 *****

  ******  HSPICE Threads Information  ******
  Command Line Threads Count:                      0
  Available CPU Count:                             8
  Actual Model Evaluation(Load) Threads Count:     1
  Actual Solver Threads Count:                     1


  ******  Circuit Statistics  ******
  # nodes       =      14  # elements   =       9
  # resistors   =       2  # capacitors =       0  # inductors   =       0
  # mutual_inds =       0  # vccs       =       0  # vcvs        =       0
  # cccs        =       0  # ccvs       =       0  # volt_srcs   =       4
  # curr_srcs   =       0  # diodes     =       0  # bjts        =       0
  # jfets       =       0  # mosfets    =       3  # U elements  =       0
  # T elements  =       0  # W elements =       0  # B elements  =       0
  # S elements  =       0  # P elements =       0  # va device   =       0


  ******  Runtime Statistics (seconds)  ******

  analysis           time    # points   tot. iter  conv.iter
  op point           0.01           1           7
  ac analysis        0.00          10          10
  readin             0.00
  errchk             0.00
  setup              0.00
  output             0.00


           total memory used          195  kbytes
           total cpu time            0.01 seconds
           total elapsed time        0.01 seconds
           job started at     20:36:32 05/04/2016
           job ended   at     20:36:33 05/04/2016


 Init: hspice initialization file: /usr/cad/synopsys/hspice/cur/hspice/hspice.ini
 lic: Release hspice token(s) 
