Using: /usr/bin/time -p /usr/cad/synopsys/hspice/cur/hspice/linux/hspice 1c.sp
 ****** HSPICE -- B-2008.09-SP1 32-BIT (Nov 24 2008) linux ******               
  Copyright (C) 2008 Synopsys, Inc. All Rights Reserved.                        
  Unpublished-rights reserved under US copyright laws.
  This program is protected by law and is subject to the 
  terms and conditions of the license agreement from Synopsys.
  Use of this program is your acceptance to be bound by the 
  license agreement. HSPICE is the trademark of Synopsys, Inc.
  Input File: 1c.sp                                                             
 lic:  
 lic: FLEXlm: v8.5b 
 lic: USER:   u102061112           HOSTNAME: ws36 
 lic: HOSTID: e41f1366b708         PID:      9468 
 lic: Using FLEXlm license file: 
 lic: 26585@lsnctu 
 lic: Checkout 1 hspice 
 lic: License/Maintenance for hspice will expire on 14-may-2016/2015.06 
 lic: FLOATING license(s) on SERVER lsnctu 
 lic:   
 Init: read install configuration file: /usr/cad/synopsys/hspice/cur/hspice/meta.cfg
 Init: hspice initialization file: /usr/cad/synopsys/hspice/cur/hspice/hspice.ini
 .option runlvl
 .option post=1 acct captab acout=0

 m3 vp vb gnd gnd n_18 w=10u l=0.5u m=1
 m2 vout+ vin- vp gnd n_18 w=84u l=2.8u m=1
 m1 vout- vin+ vp gnd n_18 w=84u l=2.8u m=1


 r1 vdd vout- 100k *$[rp]
 r0 vdd vout+ 100k *$[rp]

 ******source******

 vdd vdd 0 dc=1.8
 vcm vcm 0 dc=0.9
 vin+ vin+ vcm ac 0.5 0
 vin- vin- vcm ac 0.5 180
 vb vb 0 dc=0.49

 ******analysis******
 .op
 .ac dec 100 10m 100meg sweep vcm 0.3 1.5 0.01
 .probe vdb(vout+,vout-)
 .print vdb(vout+,vout-)


 .end
 

 
      
1****** HSPICE -- B-2008.09-SP1 32-BIT (Nov 24 2008) linux ******               
 ******  
 *3.1

  ******  operating point information tnom=  25.000 temp=  25.000 *****
 ***** operating point status is all       simulation time is     0.     
    node    =voltage      node    =voltage      node    =voltage

 +0:vb      = 490.0000m 0:vcm     = 900.0000m 0:vdd     =   1.8000 
 +0:vin+    = 900.0000m 0:vin-    = 900.0000m 0:vout+   = 797.2159m
 +0:vout-   = 797.2159m 0:vp      = 469.7493m


 maximum nodal capacitance=   1.816E-12         on node     0:vp              

    nodal  capacitance table 

    node    =    cap      node    =    cap      node    =    cap

 +0:vb      =  33.3793f 0:vcm     =   0.      0:vdd     =   0.     
 +0:vin+    =   1.0010p 0:vin-    =   1.0010p 0:vout+   = 109.8035f
 +0:vout-   = 109.8035f 0:vp      =   1.8163p

 

 ****  voltage sources

 subckt                                                         
 element  0:vdd      0:vcm      0:vin+     0:vin-     0:vb      
  volts      1.8000   900.0000m    0.         0.       490.0000m
  current  -20.0557u    0.         0.         0.         0.     
  power     36.1002u    0.         0.         0.         0.     

     total voltage source power dissipation=   36.1002u       watts



 **** resistors

 subckt                        
 element  0:r1       0:r0      
  r value  100.0000k  100.0000k
  v drop     1.0028     1.0028 
  current   10.0278u   10.0278u
  power     10.0558u   10.0558u



 **** mosfets


 subckt                                   
 element  0:m3       0:m2       0:m1      
 model    0:n_18.1   0:n_18.1   0:n_18.1  
 region     Saturati   Saturati   Saturati
  id        20.0557u   10.0278u   10.0278u
  ibs     -3.245e-21   -2.8168f   -2.8168f
  ibd     -365.4617a   -4.7805f   -4.7805f
  vgs      490.0000m  430.2507m  430.2507m
  vds      469.7493m  327.4665m  327.4665m
  vbs        0.      -469.7493m -469.7493m
  vth      443.4527m  426.6507m  426.6507m
  vdsat     92.6188m   63.8755m   63.8755m
  vod       46.5473m    3.6000m    3.6000m
  beta       6.4796m    9.1525m    9.1525m
  gam eff  507.4460m  519.2189m  519.2189m
  gm       352.0582u  220.3366u  220.3366u
  gds        5.8126u    1.9649u    1.9649u
  gmb       68.7080u   36.5808u   36.5808u
  cdtot     13.9076f  109.8035f  109.8035f
  cgtot     33.3793f    1.0010p    1.0010p
  cstot     40.2628f  901.1976f  901.1976f
  cbtot     29.4673f  486.0529f  486.0529f
  cgs       26.2017f  760.2138f  760.2138f
  cgd        3.6523f   29.2857f   29.2857f



1****** HSPICE -- B-2008.09-SP1 32-BIT (Nov 24 2008) linux ******               
 ******  
 *3.1

  ******  ac analysis tnom=  25.000 temp=  25.000 *****
 ***** operating point status is all       simulation time is     0.     

   *** source        0:vcm              =    3.000E-01 ***

    node    =voltage      node    =voltage      node    =voltage

 +0:vb      = 490.0000m 0:vcm     = 300.0000m 0:vdd     =   1.8000 
 +0:vin+    = 300.0000m 0:vin-    = 300.0000m 0:vout+   =   1.5341 
 +0:vout-   =   1.5341  0:vp      =  17.4535m


 maximum nodal capacitance=   6.591E-13         on node     0:vp              

    nodal  capacitance table 

    node    =    cap      node    =    cap      node    =    cap

 +0:vb      =  36.9583f 0:vcm     =   0.      0:vdd     =   0.     
 +0:vin+    = 586.3573f 0:vin-    = 586.3573f 0:vout+   =  99.1175f
 +0:vout-   =  99.1175f 0:vp      = 659.1044f

 

 ****  voltage sources

 subckt                                                         
 element  0:vdd      0:vcm      0:vin+     0:vin-     0:vb      
  volts      1.8000   300.0000m    0.         0.       490.0000m
  current   -5.3177u    0.         0.         0.         0.     
  power      9.5718u    0.         0.         0.         0.     

     total voltage source power dissipation=    9.5718u       watts



 **** resistors

 subckt                        
 element  0:r1       0:r0      
  r value  100.0000k  100.0000k
  v drop   265.8825m  265.8825m
  current    2.6588u    2.6588u
  power    706.9351n  706.9351n



 **** mosfets


 subckt                                   
 element  0:m3       0:m2       0:m1      
 model    0:n_18.1   0:n_18.1   0:n_18.1  
 region       Linear     Cutoff     Cutoff
  id         5.3176u    2.6588u    2.6588u
  ibs     -8.605e-22 -104.6602a -104.6602a
  ibd      -13.5780a   -9.1993f   -9.1993f
  vgs      490.0000m  282.5465m  282.5465m
  vds       17.4535m    1.5167     1.5167 
  vbs        0.       -17.4535m  -17.4535m
  vth      449.3049m  336.2500m  336.2500m
  vdsat     89.3923m   45.1251m   45.1251m
  vod       40.6951m  -53.7035m  -53.7035m
  beta       6.4802m    9.0086m    9.0086m
  gam eff  507.4459m  507.9328m  507.9328m
  gm        70.6507u   67.3501u   67.3501u
  gds      269.6968u  430.4228n  430.4228n
  gmb       14.2149u   13.7926u   13.7926u
  cdtot     31.0506f   99.1175f   99.1175f
  cgtot     36.9583f  586.3573f  586.3573f
  cstot     40.3182f  314.0269f  314.0269f
  cbtot     31.7707f  554.9112f  554.9112f
  cgs       24.3382f  196.4121f  196.4121f
  cgd        9.8438f   32.0585f   32.0585f



 ******  
 *3.1

  ******  ac analysis tnom=  25.000 temp=  25.000 *****
x

        freq    volt db    
                   vout+   
                   vout-   
   10.00000m     16.2007   
   10.23293m     16.2007   
   10.47129m     16.2007   
   10.71519m     16.2007   
   10.96478m     16.2007   
   11.22018m     16.2007   
   11.48154m     16.2007   
   11.74898m     16.2007   
   12.02264m     16.2007   
   12.30269m     16.2007   
   12.58925m     16.2007   
   12.88250m     16.2007   
   13.18257m     16.2007   
   13.48963m     16.2007   
   13.80384m     16.2007   
   14.12538m     16.2007   
   14.45440m     16.2007   
   14.79108m     16.2007   
   15.13561m     16.2007   
   15.48817m     16.2007   
   15.84893m     16.2007   
   16.21810m     16.2007   
   16.59587m     16.2007   
   16.98244m     16.2007   
   17.37801m     16.2007   
   17.78279m     16.2007   
   18.19701m     16.2007   
   18.62087m     16.2007   
   19.05461m     16.2007   
   19.49845m     16.2007   
   19.95262m     16.2007   
   20.41738m     16.2007   
   20.89296m     16.2007   
   21.37962m     16.2007   
   21.87762m     16.2007   
   22.38721m     16.2007   
   22.90868m     16.2007   
   23.44229m     16.2007   
   23.98833m     16.2007   
   24.54709m     16.2007   
   25.11886m     16.2007   
   25.70396m     16.2007   
   26.30268m     16.2007   
   26.91535m     16.2007   
   27.54229m     16.2007   
   28.18383m     16.2007   
   28.84032m     16.2007   
   29.51209m     16.2007   
   30.19952m     16.2007   
   30.90295m     16.2007   
   31.62278m     16.2007   
   32.35937m     16.2007   
   33.11311m     16.2007   
   33.88442m     16.2007   
   34.67369m     16.2007   
   35.48134m     16.2007   
   36.30781m     16.2007   
   37.15352m     16.2007   
   38.01894m     16.2007   
   38.90451m     16.2007   
   39.81072m     16.2007   
   40.73803m     16.2007   
   41.68694m     16.2007   
   42.65795m     16.2007   
   43.65158m     16.2007   
   44.66836m     16.2007   
   45.70882m     16.2007   
   46.77351m     16.2007   
   47.86301m     16.2007   
   48.97788m     16.2007   
   50.11872m     16.2007   
   51.28614m     16.2007   
   52.48075m     16.2007   
   53.70318m     16.2007   
   54.95409m     16.2007   
   56.23413m     16.2007   
   57.54399m     16.2007   
   58.88437m     16.2007   
   60.25596m     16.2007   
   61.65950m     16.2007   
   63.09573m     16.2007   
   64.56542m     16.2007   
   66.06934m     16.2007   
   67.60830m     16.2007   
   69.18310m     16.2007   
   70.79458m     16.2007   
   72.44360m     16.2007   
   74.13102m     16.2007   
   75.85776m     16.2007   
   77.62471m     16.2007   
   79.43282m     16.2007   
   81.28305m     16.2007   
   83.17638m     16.2007   
   85.11380m     16.2007   
   87.09636m     16.2007   
   89.12509m     16.2007   
   91.20108m     16.2007   
   93.32543m     16.2007   
   95.49926m     16.2007   
   97.72372m     16.2007   
  100.00000m     16.2007   
  102.32930m     16.2007   
  104.71285m     16.2007   
  107.15193m     16.2007   
  109.64782m     16.2007   
  112.20185m     16.2007   
  114.81536m     16.2007   
  117.48976m     16.2007   
  120.22644m     16.2007   
  123.02688m     16.2007   
  125.89254m     16.2007   
  128.82496m     16.2007   
  131.82567m     16.2007   
  134.89629m     16.2007   
  138.03843m     16.2007   
  141.25375m     16.2007   
  144.54398m     16.2007   
  147.91084m     16.2007   
  151.35612m     16.2007   
  154.88166m     16.2007   
  158.48932m     16.2007   
  162.18101m     16.2007   
  165.95869m     16.2007   
  169.82437m     16.2007   
  173.78008m     16.2007   
  177.82794m     16.2007   
  181.97009m     16.2007   
  186.20871m     16.2007   
  190.54607m     16.2007   
  194.98446m     16.2007   
  199.52623m     16.2007   
  204.17379m     16.2007   
  208.92961m     16.2007   
  213.79621m     16.2007   
  218.77616m     16.2007   
  223.87211m     16.2007   
  229.08677m     16.2007   
  234.42288m     16.2007   
  239.88329m     16.2007   
  245.47089m     16.2007   
  251.18864m     16.2007   
  257.03958m     16.2007   
  263.02680m     16.2007   
  269.15348m     16.2007   
  275.42287m     16.2007   
  281.83829m     16.2007   
  288.40315m     16.2007   
  295.12092m     16.2007   
  301.99517m     16.2007   
  309.02954m     16.2007   
  316.22777m     16.2007   
  323.59366m     16.2007   
  331.13112m     16.2007   
  338.84416m     16.2007   
  346.73685m     16.2007   
  354.81339m     16.2007   
  363.07805m     16.2007   
  371.53523m     16.2007   
  380.18940m     16.2007   
  389.04514m     16.2007   
  398.10717m     16.2007   
  407.38028m     16.2007   
  416.86938m     16.2007   
  426.57952m     16.2007   
  436.51583m     16.2007   
  446.68359m     16.2007   
  457.08819m     16.2007   
  467.73514m     16.2007   
  478.63009m     16.2007   
  489.77882m     16.2007   
  501.18723m     16.2007   
  512.86138m     16.2007   
  524.80746m     16.2007   
  537.03180m     16.2007   
  549.54087m     16.2007   
  562.34133m     16.2007   
  575.43994m     16.2007   
  588.84366m     16.2007   
  602.55959m     16.2007   
  616.59500m     16.2007   
  630.95734m     16.2007   
  645.65423m     16.2007   
  660.69345m     16.2007   
  676.08298m     16.2007   
  691.83097m     16.2007   
  707.94578m     16.2007   
  724.43596m     16.2007   
  741.31024m     16.2007   
  758.57758m     16.2007   
  776.24712m     16.2007   
  794.32823m     16.2007   
  812.83052m     16.2007   
  831.76377m     16.2007   
  851.13804m     16.2007   
  870.96359m     16.2007   
  891.25094m     16.2007   
  912.01084m     16.2007   
  933.25430m     16.2007   
  954.99259m     16.2007   
  977.23722m     16.2007   
    1.00000      16.2007   
    1.02329      16.2007   
    1.04713      16.2007   
    1.07152      16.2007   
    1.09648      16.2007   
    1.12202      16.2007   
    1.14815      16.2007   
    1.17490      16.2007   
    1.20226      16.2007   
    1.23027      16.2007   
    1.25893      16.2007   
    1.28825      16.2007   
    1.31826      16.2007   
    1.34896      16.2007   
    1.38038      16.2007   
    1.41254      16.2007   
    1.44544      16.2007   
    1.47911      16.2007   
    1.51356      16.2007   
    1.54882      16.2007   
    1.58489      16.2007   
    1.62181      16.2007   
    1.65959      16.2007   
    1.69824      16.2007   
    1.73780      16.2007   
    1.77828      16.2007   
    1.81970      16.2007   
    1.86209      16.2007   
    1.90546      16.2007   
    1.94984      16.2007   
    1.99526      16.2007   
    2.04174      16.2007   
    2.08930      16.2007   
    2.13796      16.2007   
    2.18776      16.2007   
    2.23872      16.2007   
    2.29087      16.2007   
    2.34423      16.2007   
    2.39883      16.2007   
    2.45471      16.2007   
    2.51189      16.2007   
    2.57040      16.2007   
    2.63027      16.2007   
    2.69153      16.2007   
    2.75423      16.2007   
    2.81838      16.2007   
    2.88403      16.2007   
    2.95121      16.2007   
    3.01995      16.2007   
    3.09030      16.2007   
    3.16228      16.2007   
    3.23594      16.2007   
    3.31131      16.2007   
    3.38844      16.2007   
    3.46737      16.2007   
    3.54813      16.2007   
    3.63078      16.2007   
    3.71535      16.2007   
    3.80189      16.2007   
    3.89045      16.2007   
    3.98107      16.2007   
    4.07380      16.2007   
    4.16869      16.2007   
    4.26580      16.2007   
    4.36516      16.2007   
    4.46684      16.2007   
    4.57088      16.2007   
    4.67735      16.2007   
    4.78630      16.2007   
    4.89779      16.2007   
    5.01187      16.2007   
    5.12861      16.2007   
    5.24807      16.2007   
    5.37032      16.2007   
    5.49541      16.2007   
    5.62341      16.2007   
    5.75440      16.2007   
    5.88844      16.2007   
    6.02560      16.2007   
    6.16595      16.2007   
    6.30957      16.2007   
    6.45654      16.2007   
    6.60693      16.2007   
    6.76083      16.2007   
    6.91831      16.2007   
    7.07946      16.2007   
    7.24436      16.2007   
    7.41310      16.2007   
    7.58578      16.2007   
    7.76247      16.2007   
    7.94328      16.2007   
    8.12831      16.2007   
    8.31764      16.2007   
    8.51138      16.2007   
    8.70964      16.2007   
    8.91251      16.2007   
    9.12011      16.2007   
    9.33254      16.2007   
    9.54993      16.2007   
    9.77237      16.2007   
   10.00000      16.2007   
   10.23293      16.2007   
   10.47129      16.2007   
   10.71519      16.2007   
   10.96478      16.2007   
   11.22018      16.2007   
   11.48154      16.2007   
   11.74898      16.2007   
   12.02264      16.2007   
   12.30269      16.2007   
   12.58925      16.2007   
   12.88250      16.2007   
   13.18257      16.2007   
   13.48963      16.2007   
   13.80384      16.2007   
   14.12538      16.2007   
   14.45440      16.2007   
   14.79108      16.2007   
   15.13561      16.2007   
   15.48817      16.2007   
   15.84893      16.2007   
   16.21810      16.2007   
   16.59587      16.2007   
   16.98244      16.2007   
   17.37801      16.2007   
   17.78279      16.2007   
   18.19701      16.2007   
   18.62087      16.2007   
   19.05461      16.2007   
   19.49845      16.2007   
   19.95262      16.2007   
   20.41738      16.2007   
   20.89296      16.2007   
   21.37962      16.2007   
   21.87762      16.2007   
   22.38721      16.2007   
   22.90868      16.2007   
   23.44229      16.2007   
   23.98833      16.2007   
   24.54709      16.2007   
   25.11886      16.2007   
   25.70396      16.2007   
   26.30268      16.2007   
   26.91535      16.2007   
   27.54229      16.2007   
   28.18383      16.2007   
   28.84032      16.2007   
   29.51209      16.2007   
   30.19952      16.2007   
   30.90295      16.2007   
   31.62278      16.2007   
   32.35937      16.2007   
   33.11311      16.2007   
   33.88442      16.2007   
   34.67369      16.2007   
   35.48134      16.2007   
   36.30781      16.2007   
   37.15352      16.2007   
   38.01894      16.2007   
   38.90451      16.2007   
   39.81072      16.2007   
   40.73803      16.2007   
   41.68694      16.2007   
   42.65795      16.2007   
   43.65158      16.2007   
   44.66836      16.2007   
   45.70882      16.2007   
   46.77351      16.2007   
   47.86301      16.2007   
   48.97788      16.2007   
   50.11872      16.2007   
   51.28614      16.2007   
   52.48075      16.2007   
   53.70318      16.2007   
   54.95409      16.2007   
   56.23413      16.2007   
   57.54399      16.2007   
   58.88437      16.2007   
   60.25596      16.2007   
   61.65950      16.2007   
   63.09573      16.2007   
   64.56542      16.2007   
   66.06934      16.2007   
   67.60830      16.2007   
   69.18310      16.2007   
   70.79458      16.2007   
   72.44360      16.2007   
   74.13102      16.2007   
   75.85776      16.2007   
   77.62471      16.2007   
   79.43282      16.2007   
   81.28305      16.2007   
   83.17638      16.2007   
   85.11380      16.2007   
   87.09636      16.2007   
   89.12509      16.2007   
   91.20108      16.2007   
   93.32543      16.2007   
   95.49926      16.2007   
   97.72372      16.2007   
  100.00000      16.2007   
  102.32930      16.2007   
  104.71285      16.2007   
  107.15193      16.2007   
  109.64782      16.2007   
  112.20185      16.2007   
  114.81536      16.2007   
  117.48976      16.2007   
  120.22644      16.2007   
  123.02688      16.2007   
  125.89254      16.2007   
  128.82496      16.2007   
  131.82567      16.2007   
  134.89629      16.2007   
  138.03843      16.2007   
  141.25375      16.2007   
  144.54398      16.2007   
  147.91084      16.2007   
  151.35612      16.2007   
  154.88166      16.2007   
  158.48932      16.2007   
  162.18101      16.2007   
  165.95869      16.2007   
  169.82437      16.2007   
  173.78008      16.2007   
  177.82794      16.2007   
  181.97009      16.2007   
  186.20871      16.2007   
  190.54607      16.2007   
  194.98446      16.2007   
  199.52623      16.2007   
  204.17379      16.2007   
  208.92961      16.2007   
  213.79621      16.2007   
  218.77616      16.2007   
  223.87211      16.2007   
  229.08677      16.2007   
  234.42288      16.2007   
  239.88329      16.2007   
  245.47089      16.2007   
  251.18864      16.2007   
  257.03958      16.2007   
  263.02680      16.2007   
  269.15348      16.2007   
  275.42287      16.2007   
  281.83829      16.2007   
  288.40315      16.2007   
  295.12092      16.2007   
  301.99517      16.2007   
  309.02954      16.2007   
  316.22777      16.2007   
  323.59366      16.2007   
  331.13112      16.2007   
  338.84416      16.2007   
  346.73685      16.2007   
  354.81339      16.2007   
  363.07805      16.2007   
  371.53523      16.2007   
  380.18940      16.2007   
  389.04514      16.2007   
  398.10717      16.2007   
  407.38028      16.2007   
  416.86938      16.2007   
  426.57952      16.2007   
  436.51583      16.2007   
  446.68359      16.2007   
  457.08819      16.2007   
