Using: /usr/bin/time -p /usr/cad/synopsys/hspice/cur/hspice/linux/hspice 2a.sp
 ****** HSPICE -- B-2008.09-SP1 32-BIT (Nov 24 2008) linux ******               
  Copyright (C) 2008 Synopsys, Inc. All Rights Reserved.                        
  Unpublished-rights reserved under US copyright laws.
  This program is protected by law and is subject to the 
  terms and conditions of the license agreement from Synopsys.
  Use of this program is your acceptance to be bound by the 
  license agreement. HSPICE is the trademark of Synopsys, Inc.
  Input File: 2a.sp                                                             
 lic:  
 lic: FLEXlm: v8.5b 
 lic: USER:   u102061112           HOSTNAME: ws36 
 lic: HOSTID: e41f1366b708         PID:      13145 
 lic: Using FLEXlm license file: 
 lic: 26585@lsnctu 
 lic: Checkout 1 hspice 
 lic: License/Maintenance for hspice will expire on 14-may-2016/2015.06 
 lic: FLOATING license(s) on SERVER lsnctu 
 lic:   
 Init: read install configuration file: /usr/cad/synopsys/hspice/cur/hspice/meta.cfg
 Init: hspice initialization file: /usr/cad/synopsys/hspice/cur/hspice/hspice.ini
 .option runlvl
 .option post=1 acct captab acout=0


 m4 vout vb b gnd n_18 w=2u l=1u m=4
 m3 b vx gnd gnd n_18 w=2u l=1u m=4
 m2 vx vb va gnd n_18 w=2u l=1u m=1
 m1 va vx gnd gnd n_18 w=2u l=1u m=1


 iref vdd vx 4u
 vdd vdd gnd dc=1.8
 vb vb gnd dc=0.7
 vout vout gnd dc=0.285

 ******analysis******
 .op
 *.dc vb 0 1.8 0.01
 *.dc vout 0 1.8 0.01
 .dc vout 0 0.3 0.01

 .print i(m4) slope=deriv('id(m4)') par('1/slope')

 .alter
 

 
      
 ******  
 *3_2a

  ******  dc transfer curves tnom=  25.000 temp=  25.000 *****
x

        volt    current         slope     param      
                    m4                      1/slope  
    0.            0.           0.         1.000e+28  
   10.00000m      1.7747u    177.4746u      5.6346k  
   20.00000m      3.4247u    164.9920u      6.0609k  
   30.00000m      4.9511u    152.6423u      6.5513k  
   40.00000m      6.3555u    140.4454u      7.1202k  
   50.00000m      7.6398u    128.4270u      7.7865k  
   60.00000m      8.8060u    116.6204u      8.5748k  
   70.00000m      9.8567u    105.0691u      9.5175k  
   80.00000m     10.7950u     93.8284u     10.6577k  
   90.00000m     11.6247u     82.9685u     12.0528k  
  100.00000m     12.3504u     72.5745u     13.7789k  
  110.00000m     12.9779u     62.7464u     15.9372k  
  120.00000m     13.5138u     53.5930u     18.6591k  
  130.00000m     13.9660u     45.2220u     22.1131k  
  140.00000m     14.3433u     37.7246u     26.5079k  
  150.00000m     14.6549u     31.1588u     32.0936k  
  160.00000m     14.9102u     25.5366u     39.1594k  
  170.00000m     15.1184u     20.8201u     48.0305k  
  180.00000m     15.2877u     16.9290u     59.0704k  
  190.00000m     15.4253u     13.7556u     72.6979k  
  200.00000m     15.5371u     11.1815u     89.4335k  
  210.00000m     15.6280u      9.0948u    109.9526k  
  220.00000m     15.7020u      7.3935u    135.2538k  
  230.00000m     15.7619u      5.9953u    166.7984k  
  240.00000m     15.8103u      4.8356u    206.7991k  
  250.00000m     15.8490u      3.8672u    258.5828k  
  260.00000m     15.8795u      3.0577u    327.0440k  
  270.00000m     15.9034u      2.3861u    419.0855k  
  280.00000m     15.9218u      1.8392u    543.7211k  
  290.00000m     15.9358u      1.4049u    711.8037k  
  300.00000m     15.9466u      1.0711u    933.6489k  
y
1****** HSPICE -- B-2008.09-SP1 32-BIT (Nov 24 2008) linux ******               
 ******  
 *3_2a

  ******  operating point information tnom=  25.000 temp=  25.000 *****
 ***** operating point status is all       simulation time is     0.     
    node    =voltage      node    =voltage      node    =voltage

 +0:b       = 164.2500m 0:va      = 170.9931m 0:vb      = 700.0000m
 +0:vdd     =   1.8000  0:vout    = 285.0000m 0:vx      = 499.4529m


 maximum nodal capacitance=   7.391E-14         on node     0:b               

    nodal  capacitance table 

    node    =    cap      node    =    cap      node    =    cap

 +0:b       =  73.9090f 0:va      =  18.3959f 0:vb      =  69.5391f
 +0:vdd     =   0.      0:vout    =  16.5054f 0:vx      =  71.9090f

 

 ****  voltage sources

 subckt                                   
 element  0:vdd      0:vb       0:vout    
  volts      1.8000   700.0000m  285.0000m
  current   -4.0000u    0.       -15.9293u
  power      7.2000u    0.         4.5398u

     total voltage source power dissipation=   11.7398u       watts



 ***** current sources

 subckt             
 element  0:iref    
  volts      1.3005 
  current    4.0000u
  power     -5.2022u


     total current source power dissipation=  -5.2022u       watts


 **** mosfets


 subckt                                              
 element  0:m4       0:m3       0:m2       0:m1      
 model    0:n_18.1   0:n_18.1   0:n_18.1   0:n_18.1  
 region     Saturati   Saturati   Saturati   Saturati
  id        15.9293u   15.9293u    4.0000u    4.0000u
  ibs     -140.4964a -3.543e-21  -36.5661a -8.896e-22
  ibd     -243.7741a -140.4893a -106.8021a  -36.5643a
  vgs      535.7500m  499.4529m  529.0069m  499.4529m
  vds      120.7500m  164.2500m  328.4598m  170.9931m
  vbs     -164.2500m    0.      -170.9931m    0.     
  vth      429.7725m  395.9418m  429.3563m  395.8907m
  vdsat    123.3989m  119.4021m  119.2335m  119.4358m
  vod      105.9775m  103.5111m   99.6506m  103.5621m
  beta       2.4893m    2.4816m  622.2993u  620.4018u
  gam eff  511.8548m  507.4460m  512.0281m  507.4460m
  gm       199.3863u  213.6999u   55.8868u   53.8287u
  gds       35.5616u   11.1585u  858.3024n    2.4652u
  gmb       37.1601u   43.6225u   10.2945u   10.9838u
  cdtot     16.5054f   14.0526f    2.9014f    3.4582f
  cgtot     56.0105f   55.2212f   13.5286f   13.7864f
  cstot     59.8563f   61.1742f   14.9377f   15.2967f
  cbtot     30.2573f   32.1605f    7.3593f    8.0315f
  cgs       47.5481f   47.5407f   11.7594f   11.8819f
  cgd        4.6500f    3.5038f  718.9692a  856.2534a




          ***** job concluded
1****** HSPICE -- B-2008.09-SP1 32-BIT (Nov 24 2008) linux ******               
 ******  
 *3_2a

  ******  job statistics summary tnom=  25.000 temp=  25.000 *****

  ******  HSPICE Threads Information  ******
  Command Line Threads Count:                      0
  Available CPU Count:                             8
  Actual Model Evaluation(Load) Threads Count:     1
  Actual Solver Threads Count:                     1


  ******  Circuit Statistics  ******
  # nodes       =      16  # elements   =       9
  # resistors   =       0  # capacitors =       0  # inductors   =       0
  # mutual_inds =       0  # vccs       =       0  # vcvs        =       0
  # cccs        =       0  # ccvs       =       0  # volt_srcs   =       4
  # curr_srcs   =       1  # diodes     =       0  # bjts        =       0
  # jfets       =       0  # mosfets    =       4  # U elements  =       0
  # T elements  =       0  # W elements =       0  # B elements  =       0
  # S elements  =       0  # P elements =       0  # va device   =       0


  ******  Runtime Statistics (seconds)  ******

  analysis           time    # points   tot. iter  conv.iter
  op point           0.00           1           5
  dc sweep           0.00          31          76
  readin             0.04
  errchk             0.00
  setup              0.00
  output             0.00


           total memory used          197  kbytes
           total cpu time            0.05 seconds
           total elapsed time        0.20 seconds
           job started at     22:02:01 05/05/2016
           job ended   at     22:02:01 05/05/2016


1****** HSPICE -- B-2008.09-SP1 32-BIT (Nov 24 2008) linux ******               
 ******  
 

  ******    alter processing listing tnom=  25.000 temp=  25.000 *****
 .lib "cic018.l" ff
 .param
 *1.8v nmos 
 +  dtox_n_18      =  -1.2000e-10     	dxl_n_18       =  -1.2600e-08                
 +  dxw_n_18       =   2.2000e-08        dvth0_n_18     =  -1.2500e-02                
 +  du0_n_18       =   1.2000e+01        dlvth0_n_18    =  -7.2000e-04
 +  dwvth0_n_18    =  -1.2100e-02        dwu0_n_18      =   2.2000e+00
 +  dpvth0_n_18    =   6.2000e-04        dpvsat_n_18    =  -8.2000e+01
 +  dcgdo_n_18     =   2.2500e-11        dcgso_n_18     =   2.2500e-11                
 +  dcj_n_18       =  -1.2300e-04        dcjsw_n_18     =  -1.2400e-11                
 +  dcjgate_n_18   =  -5.2000e-11 

 *1.8v pmos 
 +  dtox_p_18      =  -1.5000e-10        du0_p_18       =   3.5000e+00
 +  dxl_p_18       =  -8.5000e-09        dxw_p_18       =   1.5000e-08                
 +  dvth0_p_18     =   1.5000e-02        dlvth0_p_18    =  -1.5000e-03
 +  dwvth0_p_18    =   8.5000e-03
 +  dpvth0_p_18    =   1.5000e-05        dpvsat_p_18    =  -2.5000e+01
 +  dcgdo_p_18     =   2.5540e-11                
 +  dcgso_p_18     =   2.5540e-11        dcj_p_18       =  -1.5400e-04                
 +  dcjsw_p_18     =  -1.5400e-11        dcjgate_p_18   =  -4.5000e-11                

 *1.8v nmos deep_nwell
 +  dtox_n_bpw_18      =  -1.5000e-10    dxl_n_bpw_18       =  -1.3600e-08                
 +  dxw_n_bpw_18       =   2.5000e-08    dvth0_n_bpw_18     =  -1.3500e-02                
 +  du0_n_bpw_18       =   1.5000e+01    dlvth0_n_bpw_18    =  -7.3000e-04
 +  dwvth0_n_bpw_18    =  -1.5100e-02    dwu0_n_bpw_18      =   2.3000e+00
 +  dpvth0_n_bpw_18    =   6.5000e-04    dpvsat_n_bpw_18    =  -8.3000e+01
 +  dcgdo_n_bpw_18     =   2.5500e-11    dcgso_n_bpw_18     =   2.3500e-11                
 +  dcj_n_bpw_18       =  -1.5300e-04    dcjsw_n_bpw_18     =  -1.3400e-11                
 +  dcjgate_n_bpw_18   =  -5.5000e-11 

 *3.3v nmos 
 +dtox_n_33     = -6e-10        	dlint_n_33    = 9.3e-9      	dwint_n_33     = -3e-9
 +dvth0_n_33    = -0.05         	dcgdo_n_33    = 2.7e-11     	dcgso_n_33     = 2.2e-11


 *3.3v pmos
 +dtox_p_33     = -6e-10   	dlint_p_33    = 1.21e-8     	dwint_p_33     = -1e-8 
 +dvth0_p_33    = 0.05	  	dcgdo_p_33    = 2.6e-11     	dcgso_p_33     = 2.7e-11

 *3.3v nmos deep_nwell
 +dtox_n_bpw_33 = -5e-10 	dlint_n_bpw_33 = 9.5e-9  	dwint_n_bpw_33     = -4e-9
 +dvth0_n_bpw_33= -0.06  	dcgdo_n_bpw_33 = 2.7e-11 	dcgso_n_bpw_33     = 2.7e-11

 *1.8v low vth nmos
 +dtox_n_lv_18     = -2.5e-10 	dlint_n_lv_18    = 1.6e-8 	dwint_n_lv_18     = -1e-8 
 +dvth0_n_lv_18    = -0.05   	dcgdo_n_lv_18    = -10*1.2    	dcgso_n_lv_18     = -10*1.2

 *1.8v low vth pmos
 +dtox_p_lv_18     = -2.5e-10 	dlint_p_lv_18    = 0.952e-8 	dwint_p_lv_18     = -1e-8 
 +dvth0_p_lv_18    = 0.05   	dcgdo_p_lv_18    = -10*1.2    	dcgso_p_lv_18     = -10*1.2

 *3.3v low vth nmos
 +dtox_n_lv_33     = -5e-10 	dlint_n_lv_33    = 2.56e-8 	dwint_n_lv_33     = -1e-8 
 +dvth0_n_lv_33    = -0.05   	dcgdo_n_lv_33    = -10*1.2    	dcgso_n_lv_33     = -10*1.2

 *3.3v low vth pmos
 +dtox_p_lv_33     = -5e-10 	dlint_p_lv_33    = 1.68e-8 	dwint_p_lv_33     = -1e-8 
 +dvth0_p_lv_33    = 0.05   	dcgdo_p_lv_33    = -10*1.2    	dcgso_p_lv_33     = -10*1.2

 *1.8v zero vt nmos 
 +dtox_n_zero_18  = -2.6e-10 dlint_n_zero_18  = 4.29e-8 dwint_n_zero_18 = 6.51e-8
 +dvth0_n_zero_18 = -0.22    dcgdo_n_zero_18  = 4.0e-11 dcgso_n_zero_18 = 4.0e-11

 *3.3v zero vt nmos 
 +dtox_n_zero_33  = 5e-10   	dlint_n_zero_33  = -8.34e-8   	dwint_n_zero_33 = 1e-8
 +dvth0_n_zero_33 = 0.05   	dcgdo_n_zero_33  = -10*0.9  	dcgso_n_zero_33 = -10*0.9


 +  drend_rnnpo    =  -7.500e-06               
 +  drs_rnnpo      =  -2.250e+01               
 +  ddw_rnnpo      =   5.000e-08                             
 +  drend_rnppo    =  -2.520e-05               
 +  drs_rnppo      =  -8.000e+01               
 +  ddw_rnppo      =   1.000e-08               
 +  drend_rnhr1000 =  -1.420e-04               
 +  drs_rnhr1000   =  -2.975e+02               
 +  ddw_rnhr1000   =   1.000e-08 

 .lib 'cic018.l' mos_18 
 *.lib './mm180_reg18_v121.lib' tt
 .model n_18.1 nmos
 *****model selectors/controllers*********************************
 +  level     =   4.9000e+01                          version   =   3.2000e+00  
 +  binunit   =   1.0000e+00                          mobmod    =   1.0000e+00                           
 +  capmod    =   2.0000e+00                          nqsmod    =   0.0000e+00                        
 +  noimod    =   1.0000e+00 

 *****process parameters******************************************
 +  tox       =  '4.2000e-09+dtox_n_18'               toxm      =   4.2000e-09                        
 +  xj        =   1.6000e-07                          nch       =   3.7446e+17                        
 +  rsh       =   8.0000e+00                          ngate     =   1.0000e+23


 *****basic model parameters**************************************
 +  vth0      =  '3.0750e-01+dvth0_n_18'           k1        =   4.5780e-01                     
 +  k2        =  -2.6380e-02                          k3        =  -1.0880e+01                        
 +  k3b       =   2.3790e-01                          w0        =  -8.8130e-08                        
 +  nlx       =   4.2790e-07                          dvt0      =   4.0420e-01                        
 +  dvt1      =   3.2370e-01                          dvt2      =  -8.6020e-01                        
 +  dvt0w     =   3.8300e-01                          dvt1w     =   6.0000e+05                        
 +  dvt2w     =  -2.5000e-02                          lint      =   1.5870e-08                        
 +  wint      =   1.0220e-08                          dwg       =  -3.3960e-09                        
 +  dwb       =   1.3460e-09                          u0        =  '3.2410e+02+du0_n_18'                       
 +  ua        =  -9.2010e-10                          ub        =   1.9070e-18
 +  uc        =   4.3550e-11                          vsat      =   7.2580e+04 
 +  a0        =   1.9300e+00                          ags       =   5.0720e-01                        
 +  b0        =   1.4860e-06                          b1        =   9.0640e-06                        
 +  keta      =   1.7520e-02                          a1        =   0.0000e+00                        
 +  a2        =   1.0000e+00                          voff      =  -1.0880e-01                        
 +  nfactor   =   1.0380e+00                          cit       =  -1.5110e-03                        
 +  cdsc      =   2.2750e-03                          cdscd     =  -5.0000e-04                        
 +  cdscb     =   8.2410e-04                          eta0      =   1.0040e-03                        
 +  etab      =  -1.4590e-03                          dsub      =   1.5920e-03                        
 +  pclm      =   1.0910e+00                          pdiblc1   =   3.0610e-03                        
 +  pdiblc2   =   1.0000e-06                          pdiblcb   =   0.0000e+00                        
 +  drout     =   1.5920e-03                          pscbe1    =   4.8660e+08                        
 +  pscbe2    =   2.8000e-07                          pvag      =  -2.9580e-01                        


 *****parameters for asymmetric and bias-dependent rds model******
 +  rdsw      =   4.9050e+00                          prwg      =   0.0000e+00                        
 +  prwb      =   0.0000e+00                          wr        =   1.0000e+00


 *****impact ionization current model parameters******************
 +  alpha0    =   0.0000e+00                          alpha1    =   0.0000e+00                        
 +  beta0     =   3.0000e+01                        


 *****charge and capacitance model parameters*********************
 +  xpart     =   1.0000e+00                          	cgso      =  '2.3500e-10+dcgso_n_18'         
 +  cgdo      =  '2.3500e-10+dcgdo_n_18'           	cgbo      =   0.0000e+00                        
 +  cgsl      =   0.0000e+00                          	cgdl      =   0.0000e+00                        
 +  ckappa    =   6.0000e-01                          	cf        =   1.5330e-10                        
 +  clc       =   1.0000e-07                          	cle       =   6.0000e-01                        
 +  dlc       =   4.0000e-08                          	dwc       =   0.0000e+00                        
 +  vfbcv     =  -1.0000e+00                          	noff      =   1.0000e+00                        
 +  voffcv    =   0.0000e+00                          	acde      =   1.0000e+00                        
 +  moin      =   1.5000e+01                        


 *****flicker and thermal noise model parameters******************
 +  noia      =   1.0000e+20                          	noib      =   5.0000e+04                        
 +  noic      =  -1.4000e-12                          	em        =   4.2000e+07                        
 +  af        =   1.0000e+00                          	ef        =   1.0000e+00                        
 +  kf        =   0.0000e+00                        


 *****layout-dependent parasitics model parameters****************
 +  lmin      =   1.8000e-07                          	lmax      =   5.0000e-05
 +  wmin      =   2.5000e-07                          	wmax      =   1.0000e-04
 +  xl        = '-1.0500e-08+dxl_n_18'             	xw        =  '0.0000e-00+dxw_n_18'           


 *****asymmetric source/drain junction diode model parameters*****
 +  js        =   1.0000e-06                          	jsw       =   7.0000e-11                        
 +  cj        =  '1.0300e-03+dcj_n_18'             	mj        =   4.4300e-01                        
 +  pb        =   8.2300e-01                          	cjsw      =  '1.3400e-10+dcjsw_n_18'         
 +  mjsw      =   3.3000e-01                        


 *****temperature dependence parameters***************************
 +  tnom      =   2.5000e+01                          	ute       =  -1.1860e+00                        
 +  kt1       =  -2.2550e-01                          	kt1l      =  -4.2750e-09                        
 +  kt2       =  -2.5270e-02                          	ua1       =   2.2530e-09                        
 +  ub1       =  -2.6730e-18                          	uc1       =  -3.8320e-11                        
 +  at        =   1.4490e+04                          	prt       =  -1.0180e+01                        
 +  xti       =   3.0000e+00                        


 *****dw and dl parameters****************************************
 +  wl        =   0.0000e+00                          wln       =   1.0000e+00                        
 +  ww        =   7.2620e-16                          wwn       =   1.0000e+00                        
 +  wwl       =   0.0000e+00                          ll        =  -1.0620e-15                        
 +  lln       =   1.0000e+00                          lw        =   2.9960e-15                        
 +  lwn       =   1.0000e+00                          lwl       =   0.0000e+00                        
 +  llc       =  -6.6400e-15                          lwc       =   0.0000e+00                        
 +  lwlc      =   0.0000e+00                          wlc       =   0.0000e+00                        
 +  wwc       =   0.0000e+00                          wwlc      =   0.0000e+00                        


 *****other parameters********************************************
 +  lvth0     = '-1.0000e-03+dlvth0_n_18'          	wvth0     =  '6.027e-02+dwvth0_n_18'
 +  pvth0     =  '0+dpvth0_n_18'                   	lnlx      =  -2.8540e-08 
 +  wnlx      =   0.0000e+00                          	pnlx      =   0.0000e+00
 +  wua       =  -1.8800e-11                          	wu0       =  '5.4000e-01+dwu0_n_18'
 +  pub       =   3.8000e-20                          	pw0       =   1.3000e-09 
 +  wrdsw     =   0.0000e+00                          	weta0     =   0.0000e+00                        
 +  wetab     =   0.0000e+00                          	leta0     =   1.5740e-03                        
 +  letab     =   0.0000e+00                          	peta0     =   0.0000e+00                        
