 ****** HSPICE -- L-2016.06-SP2 linux64 (Nov 23 2016) ******                    
  Copyright (c) 1986 - 2018 by Synopsys, Inc. All Rights Reserved.              
  This software and the associated documentation are proprietary
  to Synopsys, Inc. This software may only be used in accordance
  with the terms and conditions of a written license agreement with
  Synopsys, Inc. All other use, reproduction, or distribution of
  this software is strictly prohibited.
  Input File: 13_psrp.sp                                                        
  Command line options: /usr/cad/synopsys/hspice/2016.06-sp2/hspice/linux64/hspice -i 13_psrp.sp -o 13_psrp.lis
 lic:  
 lic: FLEXlm: v11.2.1 
 lic: USER:   u105060012           HOSTNAME: ws40 
 lic: HOSTID: "6cae8b50b632"       PID:      23606 
 lic: Using FLEXlm license file: 
 lic: 26585@lsnctu 
 lic: Checkout 1 hspice 
 lic: License/Maintenance for hspice will expire on 14-may-2019/2017.12 
 lic: 34(in_use)/90(total) FLOATING license(s) on SERVER 26585@lsnctu 
 lic:   
  **warning** (13_psrp.sp:29) measure result psp_in_db redefined, ignored the previous.
  **info**  the obsolete option acout is ignored
  **info**  the obsolete option acout is ignored
  **warning** (13_psrp.sp:6) runlvl smaller than 5, reset to 5 when accurate turned on

 **warning**  runlvl smaller than 5, reset to 5 when accurate turned on
1****** HSPICE -- L-2016.06-SP2 linux64 (Nov 23 2016) ******                    
 ******  
 psr+

 ****** circuit name directory
 circuit number to circuit name directory
   number circuitname                     definition         multiplier
        0 main circuit
        1 xop.                            aicop              1.00 
 

  
      
 **info** set option symb=1 internally to help for convergence.
 *****************************************************************
 ******  option summary
 ******
 runlvl  = 5         bypass  = 2.0000    
  Opening plot unit= 15
 file=13_psrp.pa0

 **info** dc convergence successful at GMINDC ramping method 
 ******  
 psr+

 ****** operating point information tnom=  25.000 temp=  25.000 ******
 ****** operating point status is all       simulation time is     0.     
    node    =voltage      node    =voltage      node    =voltage

 +0:iref    = 462.8145m 0:vdd     =   1.4000  0:vinn    = 700.0000m
 +0:vinp    = 700.0000m 0:vocm    = 700.0000m 0:von     = 827.6273m
 +0:vop     = 827.6282m 0:vss     =   0.      1:net1    = 197.0513m
 +1:net10   = 715.3062m 1:net11   = 715.3061m 1:net2    = 830.4475m
 +1:net21   = 655.2200m 1:net25   = 850.9594m 1:net26   = 906.0560m
 +1:net3    = 830.4475m 1:net30   = 921.6689m 1:net4    = 462.9416m
 +1:net5    = 462.9416m 1:net6    = 942.0526m 1:net7    = 942.0526m
 +1:net8    = 461.0097m 1:net9    = 461.0097m 1:vb2     = 324.4199m
 +1:vb3     = 457.1112m 1:vcmc    = 699.9899m


 **** voltage sources

 subckt                                                         
 element  0:vdd      0:vgnd     0:vinn     0:vinp     0:vocm    
  volts      1.4000     0.       700.0000m  700.0000m  700.0000m
  current   -1.6681m    1.4878m    0.         0.        14.7779u
  power      2.3353m    0.         0.         0.       -10.3445u

     total voltage source power dissipation=    2.3250m       watts



 **** current sources

 subckt             
 element  0:iref    
  volts    937.1855m
  current   55.0000u
  power    -51.5452u


     total current source power dissipation= -51.5452u       watts

 **** resistors

 subckt                         xop        xop        xop       
 element  0:rload1   0:rload2   1:ro_cm    1:rn_cm    1:rp_cm   
  r value   10.0000k   10.0000k   15.0000k   10.0000k   10.0000k
  v drop   827.6273m  827.6282m  221.6689m  -23.3321m  -23.3312m
  current   82.7627u   82.7628u   14.7779u   -2.3332u   -2.3331u
  power     68.4967u   68.4968u    3.2758u   54.4388n   54.4344n



 **** mosfets


 subckt   xop        xop        xop        xop        xop        xop       
 element  1:m0       1:m11a     1:m11b     1:m12a     1:m12b     1:m13a    
 model    0:n_18.1   0:n_18.1   0:n_18.1   0:p_18.1   0:p_18.1   0:p_18.1  
 region     Saturati   Saturati   Saturati   Saturati   Saturati   Saturati
  id       207.4532u  103.7266u  103.7266u -114.0088u -114.0088u  -10.2821u
  ibs     -6.184e-20   -2.8242f   -2.8242f  2.078e-20  2.078e-20  1.875e-21
  ibd       -5.6482f  -11.9019f  -11.9019f    4.4928f    4.4928f    4.5096f
  vgs      462.8145m  502.9487m  502.9487m -700.0101m -700.0101m -506.0276m
  vds      197.0513m  633.3962m  633.3962m -569.5525m -569.5525m -367.5059m
  vbs        0.      -197.0513m -197.0513m    0.         0.         0.     
  vth      403.0628m  492.6072m  492.6072m -510.3461m -510.3461m -502.6457m
  vdsat     92.6184m   76.0054m   76.0054m -197.8575m -197.8575m  -71.9026m
  vod       59.7517m   10.3415m   10.3415m -189.6640m -189.6640m   -3.3819m
  beta      61.6206m   64.5094m   64.5094m    5.9380m    5.9380m    7.4225m
  gam eff  507.4460m  512.6928m  512.6928m  557.0846m  557.0846m  557.0847m
  gm         3.5096m    2.1021m    2.1021m    1.0124m    1.0124m  200.0575u
  gds       72.9345u   32.7214u   32.7214u    6.3582u    6.3582u  590.4949n
  gmb      722.9625u  351.2509u  351.2509u  303.1264u  303.1264u   59.3074u
  cdtot    329.9273f  140.2793f  140.2793f  118.6694f  118.6694f  192.2029f
  cgtot      1.2962p  275.6531f  275.6531f  580.4821f  580.4821f  814.5319f
  cstot      1.4493p  328.3540f  328.3540f  697.0856f  697.0856f  829.7779f
  cbtot    827.7948f  291.4180f  291.4180f  362.5590f  362.5590f  651.5098f
  cgs        1.0957p  194.1404f  194.1404f  501.9661f  501.9661f  560.5216f
  cgd       75.4787f   37.0499f   37.0499f   32.6610f   32.6610f   50.4415f



 subckt   xop        xop        xop        xop        xop        xop       
 element  1:m13b     1:m14a     1:m14b     1:mc1a     1:mc1b     1:mc2a    
 model    0:p_18.1   0:n_18.1   0:n_18.1   0:n_18.1   0:n_18.1   0:p_18.1  
 region     Saturati   Saturati   Saturati   Saturati   Saturati   Saturati
  id       -10.2821u   10.4398u   10.4398u   15.6395u   15.6395u  -15.7971u
  ibs      1.875e-21 -3.112e-21 -3.112e-21 -5.254e-21 -5.254e-21  2.880e-21
  ibd        4.5096f -663.4848a -663.4848a   -1.1366f   -1.1366f  209.9627a
  vgs     -506.0276m  462.8145m  462.8145m  462.8145m  462.8145m -942.0526m
  vds     -367.5059m  462.9416m  462.9416m  462.9416m  462.9416m -479.1110m
  vbs        0.         0.         0.         0.         0.         0.     
  vth     -502.6457m  428.4106m  428.4106m  420.3511m  420.3511m -492.6950m
  vdsat    -71.9026m   82.2146m   82.2146m   85.3640m   85.3640m -406.1888m
  vod       -3.3819m   34.4039m   34.4039m   42.4634m   42.4634m -449.3576m
  beta       7.4225m    4.4874m    4.4874m    5.9034m    5.9034m  174.6997u
  gam eff  557.0847m  507.4460m  507.4460m  507.4460m  507.4460m  557.0846m
  gm       200.0575u  195.9175u  195.9175u  284.8179u  284.8179u   62.4318u
  gds      590.4949n    2.6205u    2.6205u    3.6177u    3.6177u    2.1334u
  gmb       59.3074u   39.7512u   39.7512u   58.0975u   58.0975u   20.1343u
  cdtot    192.2029f   15.0205f   15.0205f   23.3009f   23.3009f    8.3803f
  cgtot    814.5319f   42.6497f   42.6497f   75.5891f   75.5891f   57.9463f
  cstot    829.7779f   49.7577f   49.7577f   87.3951f   87.3951f   66.8794f
  cbtot    651.5098f   35.1819f   35.1819f   57.0919f   57.0919f   28.4949f
  cgs      560.5216f   33.7050f   33.7050f   61.4162f   61.4162f   51.3707f
  cgd       50.4415f    3.6488f    3.6488f    5.5107f    5.5107f    2.5567f



 subckt   xop        xop        xop        xop        xop        xop       
 element  1:mc2b     1:mc3a     1:mc3b     1:m21a     1:m21b     1:m22a    
 model    0:p_18.1   0:p_18.1   0:p_18.1   0:n_18.1   0:n_18.1   0:p_18.1  
 region     Saturati   Saturati   Saturati   Saturati   Saturati   Saturati
  id       -15.7971u  -15.7971u  -15.7971u   27.0845u   27.0845u  -27.0845u
  ibs      2.880e-21  2.880e-21  2.880e-21 -7.390e-21 -7.390e-21  4.938e-21
  ibd      209.9627a  200.6880a  200.6880a   -1.4515f   -1.4515f  823.0013a
  vgs     -942.0526m -942.8888m -942.8888m  462.9416m  462.9416m -942.8888m
  vds     -479.1110m -457.9474m -457.9474m  461.0097m  461.0097m -938.9903m
  vbs        0.         0.         0.         0.         0.         0.     
  vth     -492.6950m -492.6950m -492.6950m  415.2650m  415.2650m -486.8413m
  vdsat   -406.1888m -406.8883m -406.8883m   87.7202m   87.7202m -410.3052m
  vod     -449.3576m -450.1938m -450.1938m   47.6766m   47.6766m -456.0475m
  beta     174.6997u  174.6679u  174.6679u    9.3661m    9.3661m  286.7984u
  gam eff  557.0846m  557.0846m  557.0846m  507.4460m  507.4460m  557.0846m
  gm        62.4318u   61.8188u   61.8188u  482.5825u  482.5825u  108.0120u
  gds        2.1334u    2.8214u    2.8214u    6.1576u    6.1576u  538.5050n
  gmb       20.1343u   19.9751u   19.9751u   98.5068u   98.5068u   34.9833u
  cdtot      8.3803f    8.8695f    8.8695f   35.5997f   35.5997f   12.4631f
  cgtot     57.9463f   58.1068f   58.1068f  121.7025f  121.7025f  139.7335f
  cstot     66.8794f   66.8813f   66.8813f  139.6379f  139.6379f  162.2402f
  cbtot     28.4949f   28.5472f   28.5472f   87.5500f   87.5500f   64.1959f
  cgs       51.3707f   51.3675f   51.3675f   99.9062f   99.9062f  125.8485f
  cgd        2.5567f    2.7610f    2.7610f    8.6840f    8.6840f    3.6791f



 subckt   xop        xop        xop        xop        xop        xop       
 element  1:m22b     1:m31a     1:m31b     1:m32a     1:m32b     1:m33a    
 model    0:p_18.1   0:n_18.1   0:n_18.1   0:p_18.1   0:p_18.1   0:p_18.1  
 region     Saturati   Saturati   Saturati   Saturati   Saturati   Saturati
  id       -27.0845u   11.0719u   11.0719u  -11.0719u  -11.0719u -330.6174u
  ibs      4.938e-21 -3.301e-21 -3.301e-21  2.018e-21  2.018e-21  6.363e-20
  ibd      823.0013a   -1.0252f   -1.0252f  600.1184a  600.1185a   11.9156f
  vgs     -942.8888m  461.0097m  461.0097m -684.6938m -684.6939m -684.6938m
  vds     -938.9903m  715.3062m  715.3061m -684.6938m -684.6939m -572.3727m
  vbs        0.         0.         0.         0.         0.         0.     
  vth     -486.8413m  415.2446m  415.2446m -510.3460m -510.3460m -520.7365m
  vdsat   -410.3052m   86.8554m   86.8554m -185.6251m -185.6252m -182.2394m
  vod     -456.0475m   45.7651m   45.7651m -174.3477m -174.3478m -163.9573m
  beta     286.7984u    3.8949m    3.8949m  662.1780u  662.1780u   21.2811m
  gam eff  557.0846m  507.4460m  507.4460m  557.0846m  557.0846m  557.0846m
  gm       108.0120u  198.5403u  198.5404u  104.9912u  104.9912u    3.2591m
  gds      538.5050n    2.3265u    2.3265u  528.0993n  528.0996n   25.0346u
  gmb       34.9833u   40.3023u   40.3024u   31.3468u   31.3468u  962.5136u
  cdtot     12.4631f   14.3041f   14.3041f   12.8435f   12.8435f  299.1419f
  cgtot    139.7335f   50.3419f   50.3419f   64.3809f   64.3809f    1.0314p
  cstot    162.2402f   57.9556f   57.9556f   77.3334f   77.3334f    1.2839p
  cbtot     64.1959f   36.2068f   36.2068f   40.0164f   40.0164f  773.8331f
  cgs      125.8485f   41.1317f   41.1317f   55.6150f   55.6150f  870.5808f
  cgd        3.6791f    3.6140f    3.6140f    3.6066f    3.6066f   81.1864f



 subckt   xop        xop        xop        xop        xop        xop       
 element  1:m33b     1:m34a     1:m34b     1:mb0      1:mb1      1:mb2     
 model    0:p_18.1   0:n_18.1   0:n_18.1   0:n_18.1   0:p_18.1   0:n_18.1  
 region     Saturati   Saturati   Saturati   Saturati   Saturati   Saturati
  id      -330.6176u  250.1877u  250.1878u   55.0000u -267.2928u  267.2928u
  ibs      6.363e-20 -7.879e-20 -7.879e-20 -1.501e-20  4.873e-20 -7.294e-20
  ibd       11.9156f  -28.1947f  -28.1947f   -2.9143f    2.8281f  -10.2142f
  vgs     -684.6939m  462.9416m  462.9416m  462.8145m   -1.0756   462.8145m
  vds     -572.3718m  827.6273m  827.6282m  462.8145m   -1.0756   324.4199m
  vbs        0.         0.         0.         0.         0.         0.     
  vth     -520.7365m  426.1460m  426.1460m  398.8257m -510.3507m  399.8754m
  vdsat   -182.2395m   83.5950m   83.5950m   94.9141m -509.5688m   94.2988m
  vod     -163.9573m   36.7956m   36.7956m   63.9888m -565.2294m   62.9391m
  beta      21.2811m  100.8361m  100.8361m   14.8175m    1.8224m   74.0902m
  gam eff  557.0846m  507.4460m  507.4460m  507.4460m  557.0845m  507.4460m
  gm         3.2591m    4.6401m    4.6401m  914.9631u  845.3971u    4.4704m
  gds       25.0346u   55.6790u   55.6790u   10.6927u    9.9552u   59.2067u
  gmb      962.5140u  932.9937u  932.9938u  187.2404u  272.5161u  917.8424u
  cdtot    299.1419f  318.5832f  318.5832f   71.2553f   36.2729f  369.3565f
  cgtot      1.0315p  969.3167f  969.3168f  312.4966f  193.4995f    1.5608p
  cstot      1.2839p    1.1363p    1.1363p  351.2484f  233.1801f    1.7512p
  cbtot    773.8331f  776.3359f  776.3358f  191.6583f  115.4133f  969.6247f
  cgs      870.5808f  769.0400f  769.0401f  265.3949f  169.6647f    1.3248p
  cgd       81.1864f   81.8791f   81.8791f   17.1929f   10.8602f   86.7514f



 subckt   xop        xop        xop        xop        xop        xop       
 element  1:mb3      1:mb4      1:mcm1     1:mcm2     1:mcm3     1:mcm4    
 model    0:p_18.1   0:n_18.1   0:p_18.1   0:p_18.1   0:n_18.1   0:p_18.1  
 region     Saturati   Saturati   Saturati   Saturati   Saturati   Saturati
  id      -274.6947u  274.6946u   -8.8251u   -4.1587u    4.1587u  -37.3569u
  ibs      5.008e-20 -7.496e-20  1.609e-21  7.582e-22 -1.240e-21  5.105e-21
  ibd        4.1321f  -14.3920f  192.4876a  514.6841a -375.6233a  502.8471a
  vgs     -942.8888m  462.8145m -744.7800m -526.5395m  457.1112m -744.7800m
  vds     -942.8888m  457.1112m -549.0406m -195.7394m  655.2200m -478.3311m
  vbs        0.         0.         0.         0.         0.         0.     
  vth     -510.3487m  398.8689m -516.3313m -516.3300m  399.5852m -507.6957m
  vdsat   -398.3856m   94.8887m -232.0725m  -77.3633m   91.3384m -233.8693m
  vod     -432.5401m   63.9455m -228.4487m  -10.2095m   57.5260m -237.0842m
  beta       3.1218m   74.0874m  326.5145u    2.5649m    1.2320m    1.3308m
  gam eff  557.0846m  507.4460m  557.0846m  557.0847m  507.4460m  557.0846m
  gm         1.1354m    4.5708m   66.7287u   78.5274u   71.1688u  272.9483u
  gds       10.9383u   53.5806u  643.9733n  745.7079n  778.0437n    3.2843u
  gmb      357.3465u  935.5141u   20.0284u   22.9092u   14.5233u   82.4492u
  cdtot     61.6191f  356.7422f    5.3053f   43.4714f    5.7856f   20.4719f
  cgtot    322.6871f    1.5624p   20.8905f  116.7077f   25.6416f   84.0578f
  cstot    388.6155f    1.7561p   25.5660f  129.8289f   28.8475f  101.0076f
  cbtot    194.8169f  958.7214f   14.4274f  110.9339f   15.9263f   55.2417f
  cgs      281.7069f    1.3269p   17.8719f   81.6188f   21.6066f   72.2751f
  cgd       18.0901f   85.9808f    1.4551f   10.9503f    1.4310f    5.8786f



 subckt   xop        xop        xop        xop        xop       
 element  1:mcm5     1:mcm6     1:mcm7     1:mcm8     1:mcm9    
 model    0:p_18.1   0:n_18.1   0:p_18.1   0:p_18.1   0:n_18.1  
 region     Saturati   Saturati   Saturati   Saturati   Saturati
  id       -22.5789u    8.3871u  -27.7437u  -27.7437u   41.9355u
  ibs      4.116e-21 -2.500e-21  5.058e-21  5.058e-21 -1.250e-20
  ibd      971.4822a -802.5779a  952.4454a    1.6255f   -4.0129f
  vgs     -597.2491m  457.1112m -700.0101m -581.6361m  457.1112m
  vds     -221.6791m  699.9899m -493.9440m -206.0661m  699.9899m
  vbs        0.         0.         0.         0.         0.     
  vth     -516.3302m  399.2454m -510.3461m -510.3456m  399.2454m
  vdsat   -117.9131m   91.5330m -197.8570m -109.8583m   91.5330m
  vod      -80.9188m   57.8658m -189.6640m  -71.2906m   57.8658m
  beta       4.2213m    2.4640m    1.4515m    6.0997m   12.3201m
  gam eff  557.0847m  507.4460m  557.0846m  557.0847m  507.4460m
  gm       323.5548u  143.2370u  246.2578u  415.8287u  716.1848u
  gds        4.4629u    1.5540u    1.7723u    5.5599u    7.7699u
  gmb       94.5989u   29.1994u   73.7184u  122.2657u  145.9970u
  cdtot     73.3860f   11.4774f   29.6102f  134.0837f   57.3870f
  cgtot    248.6680f   51.3242f  141.9789f  544.9655f  256.6208f
  cstot    297.9767f   57.7492f  170.3624f  635.6477f  288.7458f
  cbtot    186.5053f   31.7614f   89.1021f  374.3088f  158.8068f
  cgs      205.6562f   43.2565f  122.7485f  452.3849f  216.2824f
  cgd       18.8742f    2.8610f    8.0438f   34.6047f   14.3050f



 ******
 psr+

 ****** ac analysis tnom=  25.000 temp=  25.000 ******
 psp_in_db=-136.5375 

          ***** job concluded
 ******  
 psr+

 ****** job statistics summary tnom=  25.000 temp=  25.000 ******
  
  
 ******  Machine Information  ******
 CPU:
 model name	: Intel(R) Xeon(R) CPU E5-2620 0 @ 2.00GHz
 cpu MHz	: 1200.000
  
 OS:
 Linux version 2.6.18-371.9.1.el5 (mockbuild@builder17.centos.org) (gcc version 4.1.2 20080704 (Red Hat 4.1.2-54)) #1 SMP Tue Jun 10 17:49:56 EDT 2014


  ******  HSPICE Threads Information  ******

  Command Line Threads Count :     1
  Available CPU Count        :    12
  Actual Threads Count       :     1


  ******  Circuit Statistics  ******
  # nodes       =     109 # elements   =      58
  # resistors   =       5 # capacitors =       6 # inductors   =       0
  # mutual_inds =       0 # vccs       =       0 # vcvs        =       0
  # cccs        =       0 # ccvs       =       0 # volt_srcs   =       5
  # curr_srcs   =       1 # diodes     =       0 # bjts        =       0
  # jfets       =       0 # mosfets    =      41 # U elements  =       0
  # T elements  =       0 # W elements =       0 # B elements  =       0
  # S elements  =       0 # P elements =       0 # va device   =       0
  # vector_srcs =       0 # N elements =       0


  ******  Runtime Statistics (seconds)  ******

  analysis           time    # points   tot. iter  conv.iter
  op point           0.06           1         240
  ac analysis        0.01          81          81
  readin             0.04
  errchk             0.01
  setup              0.00
  output             0.00


           peak memory used        202.29 megabytes
           total cpu time            0.12 seconds
           total elapsed time        0.75 seconds
           job started at     00:02:23 06/26/2018
           job ended   at     00:02:24 06/26/2018


  **warning** (13_psrp.sp:29) measure result psp_in_db redefined, ignored the previous.
  **info**  the obsolete option acout is ignored
  **info**  the obsolete option acout is ignored
  **warning** (13_psrp.sp:6) runlvl smaller than 5, reset to 5 when accurate turned on

 **warning**  runlvl smaller than 5, reset to 5 when accurate turned on
 ******  
 psr+

 ****** circuit name directory
 circuit number to circuit name directory
   number circuitname                     definition         multiplier
        0 main circuit
        1 xop.                            aicop              1.00 
 ***************************************************************************
 ***        model parameters  model name:   0:n_18.1   model type:nmos   ***
 ***************************************************************************

   *** general parameters ***
    deriv=   0.           

   ***  level 49  model parameters  ***

      hspver=    2006.03               level=         49         
     version=        3.2            paramchk=          0         
      apwarn=          1                lite=          0         
      vgslim=          0             binUnit=          1         
      capMod=          2               xpart=          1         
      mobMod=          1              nqsMod=          0         
      stiMod=          0                 elm=          5         
    sfvtflag=          0                 tox=   4.08e-09 meter   
          xj=    1.6e-07 meter       binflag=          0         
        lmin=    1.8e-07 meter          lmax=      5e-05 meter   
        wmin=    2.5e-07 meter          wmax=     0.0001 meter   
