 ****** HSPICE -- L-2016.06-SP2 linux64 (Nov 23 2016) ******                    
  Copyright (c) 1986 - 2018 by Synopsys, Inc. All Rights Reserved.              
  This software and the associated documentation are proprietary
  to Synopsys, Inc. This software may only be used in accordance
  with the terms and conditions of a written license agreement with
  Synopsys, Inc. All other use, reproduction, or distribution of
  this software is strictly prohibited.
  Input File: hw3_3d.sp                                                         
  Command line options: /usr/cad/synopsys/hspice/2016.06-sp2/hspice/linux64/hspice -i hw3_3d.sp -o hw3_3d.lis
 lic:  
 lic: FLEXlm: v11.2.1 
 lic: USER:   u105060012           HOSTNAME: ws40 
 lic: HOSTID: "6eae8b50b631"       PID:      7226 
 lic: Using FLEXlm license file: 
 lic: 26585@lsnctu 
 lic: Checkout 1 hspice 
 lic: License/Maintenance for hspice will expire on 14-may-2019/2017.12 
 lic: 61(in_use)/90(total) FLOATING license(s) on SERVER 26585@lsnctu 
 lic:   
 

  
      
 **info** set option symb=1 internally to help for convergence.
 *****************************************************************
 ******  option summary
 ******
 runlvl  = 3         bypass  = 2.0000    
 **info** dc convergence successful at Newton-Raphson method 
1****** HSPICE -- L-2016.06-SP2 linux64 (Nov 23 2016) ******                    
 ******  
 hw3_3d

 ****** operating point information tnom=  25.000 temp=  25.000 ******
 ****** operating point status is all       simulation time is     0.     
    node    =voltage      node    =voltage      node    =voltage

 +0:net7    = 890.8687m 0:vdd     =   1.5000  0:vin1    = 400.0663m
 +0:vin2    = 400.0663m 0:vout    = 890.8687m


 **** voltage sources

 subckt                        
 element  0:vdd      0:vin     
  volts      1.5000     0.     
  current   -6.9979u    0.     
  power     10.4969u    0.     

     total voltage source power dissipation=   10.4969u       watts



 **** current sources

 subckt             
 element  0:iref    
  volts      1.0999 
  current    2.1821u
  power     -2.4002u


     total current source power dissipation=  -2.4002u       watts


 **** mosfets


 subckt                                                         
 element  0:m0       0:m1       0:m2       0:m3       0:m4      
 model    0:n_18.1   0:p_18.1   0:n_18.1   0:p_18.1   0:n_18.1  
 region     Saturati   Saturati   Saturati   Saturati   Saturati
  id         2.4079u   -2.4079u    2.4079u   -2.4079u    2.1821u
  ibs     -4.261e-22  2.631e-22 -4.261e-22  2.631e-22 -3.862e-22
  ibd     -378.9751a  160.0112a -378.9751a  160.0112a -170.1878a
  vgs      400.0663m -609.1313m  400.0663m -609.1313m  400.0663m
  vds      890.8687m -609.1313m  890.8687m -609.1313m  400.0663m
  vbs        0.         0.         0.         0.         0.     
  vth      373.8579m -492.6728m  373.8579m -492.6728m  377.1407m
  vdsat     73.2960m -133.3468m   73.2960m -133.3468m   71.7660m
  vod       26.2083m -116.4585m   26.2083m -116.4585m   22.9256m
  beta       1.2823m  293.5846u    1.2823m  293.5846u    1.2826m
  gam eff  507.4459m  557.0846m  507.4459m  557.0846m  507.4459m
  gm        47.2929u   30.1269u   47.2929u   30.1269u   43.6449u
  gds      466.2577n  109.9030n  466.2577n  109.9030n  466.0162n
  gmb        9.7294u    9.1386u    9.7294u    9.1386u    9.0787u
  cdtot      6.5055f    5.9286f    6.5055f    5.9286f    7.1295f
  cgtot     33.4129f   38.1628f   33.4129f   38.1628f   32.7466f
  cstot     35.1274f   44.1570f   35.1274f   44.1570f   34.2208f
  cbtot     20.3412f   20.9063f   20.3412f   20.9063f   20.9376f
  cgs       26.6111f   33.3267f   26.6111f   33.3267f   25.8399f
  cgd        1.8075f    1.8031f    1.8075f    1.8031f    1.8181f




          ***** job concluded
 ******  
 hw3_3d

 ****** job statistics summary tnom=  25.000 temp=  25.000 ******
  
  
 ******  Machine Information  ******
 CPU:
 model name	: Intel(R) Xeon(R) CPU E5-2620 0 @ 2.00GHz
 cpu MHz	: 1200.000
  
 OS:
 Linux version 2.6.18-371.9.1.el5 (mockbuild@builder17.centos.org) (gcc version 4.1.2 20080704 (Red Hat 4.1.2-54)) #1 SMP Tue Jun 10 17:49:56 EDT 2014


  ******  HSPICE Threads Information  ******

  Command Line Threads Count :     1
  Available CPU Count        :    12
  Actual Threads Count       :     1


  ******  Circuit Statistics  ******
  # nodes       =      16 # elements   =       8
  # resistors   =       0 # capacitors =       0 # inductors   =       0
  # mutual_inds =       0 # vccs       =       0 # vcvs        =       0
  # cccs        =       0 # ccvs       =       0 # volt_srcs   =       2
  # curr_srcs   =       1 # diodes     =       0 # bjts        =       0
  # jfets       =       0 # mosfets    =       5 # U elements  =       0
  # T elements  =       0 # W elements =       0 # B elements  =       0
  # S elements  =       0 # P elements =       0 # va device   =       0
  # vector_srcs =       0 # N elements =       0


  ******  Runtime Statistics (seconds)  ******

  analysis           time    # points   tot. iter  conv.iter
  op point           0.01           1           9
  ac analysis        0.81       80001       80001
  readin             0.04
  errchk             0.00
  setup              0.00
  output             0.00


           peak memory used        217.17 megabytes
           total cpu time            0.86 seconds
           total elapsed time        1.25 seconds
           job started at     12:36:44 05/07/2018
           job ended   at     12:36:46 05/07/2018



  **warning** .prot and .unpr not matched,  unencrypted information may be enclosed.

  
      
 **info** set option symb=1 internally to help for convergence.
 *****************************************************************
 ******  option summary
 ******
 runlvl  = 3         bypass  = 2.0000    
 **info** dc convergence successful at Newton-Raphson method 
 ******  
 hw3_3d

 ****** operating point information tnom=  25.000 temp=  25.000 ******
 ****** operating point status is all       simulation time is     0.     
    node    =voltage      node    =voltage      node    =voltage

 +0:net7    = 934.8706m 0:vdd     =   1.5000  0:vin1    = 443.0713m
 +0:vin2    = 443.0713m 0:vout    = 934.8706m


 **** voltage sources

 subckt                        
 element  0:vdd      0:vin     
  volts      1.5000     0.     
  current   -6.9402u    0.     
  power     10.4103u    0.     

     total voltage source power dissipation=   10.4103u       watts



 **** current sources

 subckt             
 element  0:iref    
  volts      1.0569 
  current    2.1821u
  power     -2.3063u


     total current source power dissipation=  -2.3063u       watts


 **** mosfets


 subckt                                                         
 element  0:m0       0:m1       0:m2       0:m3       0:m4      
 model    0:n_18.1   0:p_18.1   0:n_18.1   0:p_18.1   0:n_18.1  
 region     Saturati   Saturati   Saturati   Saturati   Saturati
  id         2.3791u   -2.3791u    2.3791u   -2.3791u    2.1821u
  ibs     -4.213e-22  2.598e-22 -4.213e-22  2.598e-22 -3.864e-22
  ibd     -396.3750a  148.8234a -396.3750a  148.8234a -187.8572a
  vgs      443.0713m -565.1294m  443.0713m -565.1294m  443.0713m
  vds      934.8706m -565.1294m  934.8706m -565.1294m  443.0713m
  vbs        0.         0.         0.         0.         0.     
  vth      403.2621m -456.6690m  403.2621m -456.6690m  406.2212m
  vdsat     78.3119m -128.6239m   78.3119m -128.6239m   76.8275m
  vod       39.8092m -108.4604m   39.8092m -108.4604m   36.8501m
  beta     998.7522u  320.4636u  998.7522u  320.4636u  998.9141u
  gam eff  507.4459m  557.0846m  507.4459m  557.0846m  507.4459m
  gm        44.1570u   30.9550u   44.1570u   30.9550u   41.2261u
  gds      405.8951n  116.7283n  405.8951n  116.7283n  402.6813n
  gmb        9.4348u    9.0607u    9.4348u    9.0607u    8.9024u
  cdtot      6.7927f    5.6673f    6.7927f    5.6673f    7.4552f
  cgtot     40.2395f   39.2994f   40.2395f   39.2994f   39.7248f
  cstot     43.4638f   44.3347f   43.4638f   44.3347f   42.7587f
  cbtot     23.1838f   19.9397f   23.1838f   19.9397f   23.8193f
  cgs       33.3659f   34.2394f   33.3659f   34.2394f   32.7871f
  cgd        1.6559f    1.9385f    1.6559f    1.9385f    1.6660f




          ***** job concluded
 ******  
 hw3_3d

 ****** job statistics summary tnom=  25.000 temp=  25.000 ******

  ******  Circuit Statistics  ******
  # nodes       =      16 # elements   =       8
  # resistors   =       0 # capacitors =       0 # inductors   =       0
  # mutual_inds =       0 # vccs       =       0 # vcvs        =       0
  # cccs        =       0 # ccvs       =       0 # volt_srcs   =       2
  # curr_srcs   =       1 # diodes     =       0 # bjts        =       0
  # jfets       =       0 # mosfets    =       5 # U elements  =       0
  # T elements  =       0 # W elements =       0 # B elements  =       0
  # S elements  =       0 # P elements =       0 # va device   =       0
  # vector_srcs =       0 # N elements =       0


  ******  Runtime Statistics (seconds)  ******

  analysis           time    # points   tot. iter  conv.iter
  op point           0.00           1          10
  ac analysis        0.51       80001       80001
  readin             0.01
  errchk             0.00
  setup              0.00
  output             0.00


           peak memory used        233.17 megabytes
           total cpu time            0.52 seconds
           total elapsed time        0.61 seconds
           job started at     12:36:44 05/07/2018
           job ended   at     12:36:46 05/07/2018


  
      
 **info** set option symb=1 internally to help for convergence.
 *****************************************************************
 ******  option summary
 ******
 runlvl  = 3         bypass  = 2.0000    
 **info** dc convergence successful at Newton-Raphson method 
 ******  
 hw3_3d

 ****** operating point information tnom=  25.000 temp=  25.000 ******
 ****** operating point status is all       simulation time is     0.     
    node    =voltage      node    =voltage      node    =voltage

 +0:net7    = 910.8378m 0:vdd     =   1.5000  0:vin1    = 415.6445m
 +0:vin2    = 415.6445m 0:vout    = 910.8378m


 **** voltage sources

 subckt                        
 element  0:vdd      0:vin     
  volts      1.5000     0.     
  current   -6.9959u    0.     
  power     10.4939u    0.     

     total voltage source power dissipation=   10.4939u       watts



 **** current sources

 subckt             
 element  0:iref    
  volts      1.0844 
  current    2.1821u
  power     -2.3662u


     total current source power dissipation=  -2.3662u       watts


 **** mosfets


 subckt                                                         
 element  0:m0       0:m1       0:m2       0:m3       0:m4      
 model    0:n_18.1   0:p_18.1   0:n_18.1   0:p_18.1   0:n_18.1  
 region     Saturati   Saturati   Saturati   Saturati   Saturati
  id         2.4069u   -2.4069u    2.4069u   -2.4069u    2.1821u
  ibs     -4.261e-22  2.629e-22 -4.261e-22  2.629e-22 -3.863e-22
  ibd     -386.8277a  155.0234a -386.8277a  155.0234a -176.5217a
  vgs      415.6445m -589.1622m  415.6445m -589.1622m  415.6445m
  vds      910.8378m -589.1622m  910.8378m -589.1622m  415.6445m
  vbs        0.         0.         0.         0.         0.     
  vth      388.0386m -475.3017m  388.0386m -475.3017m  391.3292m
  vdsat     73.9125m -131.5045m   73.9125m -131.5045m   72.3635m
  vod       27.6058m -113.8605m   27.6058m -113.8605m   24.3152m
  beta       1.2473m  303.5710u    1.2473m  303.5710u    1.2475m
  gam eff  507.4459m  557.0846m  507.4459m  557.0846m  507.4459m
  gm        47.0086u   30.4718u   47.0086u   30.4718u   43.4096u
  gds      460.7612n  114.0208n  460.7612n  114.0208n  457.8961n
  gmb        9.6700u    9.2421u    9.6700u    9.2421u    9.0297u
  cdtot      6.9265f    5.5504f    6.9265f    5.5504f    7.6040f
  cgtot     33.9364f   38.0609f   33.9364f   38.0609f   33.2766f
  cstot     36.3245f   43.4988f   36.3245f   43.4988f   35.4312f
  cbtot     21.4346f   20.0023f   21.4346f   20.0023f   22.0855f
  cgs       27.1639f   33.2012f   27.1639f   33.2012f   26.4027f
  cgd        1.8014f    1.8074f    1.8014f    1.8074f    1.8115f




          ***** job concluded
 ******  
 hw3_3d

 ****** job statistics summary tnom=  25.000 temp=  25.000 ******

  ******  Circuit Statistics  ******
  # nodes       =      16 # elements   =       8
  # resistors   =       0 # capacitors =       0 # inductors   =       0
  # mutual_inds =       0 # vccs       =       0 # vcvs        =       0
  # cccs        =       0 # ccvs       =       0 # volt_srcs   =       2
  # curr_srcs   =       1 # diodes     =       0 # bjts        =       0
  # jfets       =       0 # mosfets    =       5 # U elements  =       0
  # T elements  =       0 # W elements =       0 # B elements  =       0
  # S elements  =       0 # P elements =       0 # va device   =       0
  # vector_srcs =       0 # N elements =       0


  ******  Runtime Statistics (seconds)  ******

  analysis           time    # points   tot. iter  conv.iter
  op point           0.00           1           9
  ac analysis        0.50       80001       80001
  readin             0.00
  errchk             0.00
  setup              0.00
  output             0.00


           peak memory used        234.09 megabytes
           total cpu time            0.50 seconds
           total elapsed time        0.60 seconds
           job started at     12:36:44 05/07/2018
           job ended   at     12:36:47 05/07/2018


 lic: Release hspice token(s) 
 lic: total license checkout elapse time:        0.64(s)
