 ****** HSPICE -- L-2016.06-SP2 linux64 (Nov 23 2016) ******                    
  Copyright (c) 1986 - 2018 by Synopsys, Inc. All Rights Reserved.              
  This software and the associated documentation are proprietary
  to Synopsys, Inc. This software may only be used in accordance
  with the terms and conditions of a written license agreement with
  Synopsys, Inc. All other use, reproduction, or distribution of
  this software is strictly prohibited.
  Input File: hw4_1b.sp                                                         
  Command line options: /usr/cad/synopsys/hspice/2016.06-sp2/hspice/linux64/hspice -i hw4_1b.sp -o hw4_1b.lis
 lic:  
 lic: FLEXlm: v11.2.1 
 lic: USER:   u105060012           HOSTNAME: ws40 
 lic: HOSTID: "6cae8b50b632"       PID:      15419 
 lic: Using FLEXlm license file: 
 lic: 26585@lsnctu 
 lic: Checkout 1 hspice 
 lic: License/Maintenance for hspice will expire on 14-may-2019/2017.12 
 lic: 60(in_use)/90(total) FLOATING license(s) on SERVER 26585@lsnctu 
 lic:   
 

  
      
 *****************************************************************
 ******  option summary
 ******
 runlvl  = 3         bypass  = 2.0000    
 **info** dc convergence successful at Newton-Raphson method 
1****** HSPICE -- L-2016.06-SP2 linux64 (Nov 23 2016) ******                    
 ******  
 hw3_1b

 ****** operating point information tnom=  25.000 temp=  25.000 ******
 ****** operating point status is all       simulation time is     0.     
    node    =voltage      node    =voltage      node    =voltage

 +0:vb      = 420.0000m 0:vdd     =   1.8000  0:vin     =   1.0000 
 +0:vout    = 500.1410m


 **** voltage sources

 subckt                                   
 element  0:vin      0:vb       0:vdd     
  volts      1.0000   420.0000m    1.8000 
  current    0.         0.        -3.2488u
  power      0.         0.         5.8478u

     total voltage source power dissipation=    5.8478u       watts




 **** mosfets


 subckt                        
 element  0:m0       0:m1      
 model    0:n_18.1   0:n_18.1  
 region     Saturati   Saturati
  id         3.2488u    3.2488u
  ibs     -212.7605a -5.749e-22
  ibd     -765.7194a -212.7594a
  vgs      499.8590m  420.0000m
  vds        1.2999   500.1410m
  vbs     -500.1410m    0.     
  vth      472.7113m  388.0421m
  vdsat     78.5413m   77.3394m
  vod       27.1478m   31.9579m
  beta       1.5669m    1.5516m
  gam eff  519.9037m  507.4460m
  gm        63.6509u   62.3685u
  gds      792.2613n  699.5570n
  gmb        9.8318u   12.8926u
  cdtot      5.8360f    6.9729f
  cgtot     27.7923f   29.1474f
  cstot     28.8383f   31.5855f
  cbtot     15.4524f   19.0719f
  cgs       22.4608f   23.4572f
  cgd        1.7730f    1.8124f







 ****     small-signal transfer characteristics

      v(vout)/vin                              =  848.9670m
      input resistance at             vin      =  1.000e+20
      output resistance at v(vout)             =   13.3383k



 ******  
 hw3_1b

 ****** noise analysis tnom=  25.000 temp=  25.000 ******
 
     frequency =  10.0000        hz

 


 **** mosfet squared noise voltages (sq v/hz)
 



 element     0:m0
       rd  7.648e-25    
       rs  6.722e-21    
       id  145.0420a    
       rx   13.3379k    
       fn   76.4814f    
    total   76.6264f    
 



 element     0:m1
       rd  5.963e-25    
       rs  7.031e-21    
       id  148.3336a    
       rx   13.3379k    
       fn   76.4813f    
    total   76.6296f    
 



 **** total output noise voltage         = 153.2561f       sq v/hz
                                         = 391.4793n       v/rt hz
      transfer function value:
        v(vout)/vin                      = 848.9671m      
      equivalent input noise at vin                           
                                         = 461.1243n       /rt hz
 


 **** the results of the sqrt of integral (v**2 / freq)
      from fstart upto   10.0000        hz. using more freq points 
      results in more accurate total noise values.     

 **** total output noise voltage   =    0.            volts         
 **** total equivalent input noise =    0.                          



 ******  
 hw3_1b

 ****** noise analysis tnom=  25.000 temp=  25.000 ******
 
     frequency = 100.0000        hz

 


 **** mosfet squared noise voltages (sq v/hz)
 



 element     0:m0
       rd  7.648e-25    
       rs  6.722e-21    
       id  145.0420a    
       rx   13.3379k    
       fn    7.6481f    
    total    7.7932f    
 



 element     0:m1
       rd  5.963e-25    
       rs  7.031e-21    
       id  148.3336a    
       rx   13.3379k    
       fn    7.6481f    
    total    7.7965f    
 



 **** total output noise voltage         =  15.5897f       sq v/hz
                                         = 124.8585n       v/rt hz
      transfer function value:
        v(vout)/vin                      = 848.9671m      
      equivalent input noise at vin                           
                                         = 147.0711n       /rt hz
 


 **** the results of the sqrt of integral (v**2 / freq)
      from fstart upto  100.0000        hz. using more freq points 
      results in more accurate total noise values.     

 **** total output noise voltage   =    1.8837u       volts         
 **** total equivalent input noise =    2.2189u                     



 ******  
 hw3_1b

 ****** noise analysis tnom=  25.000 temp=  25.000 ******
 
     frequency =   1.0000k       hz

 


 **** mosfet squared noise voltages (sq v/hz)
 



 element     0:m0
       rd  7.648e-25    
       rs  6.722e-21    
       id  145.0420a    
       rx   13.3379k    
       fn  764.8139a    
    total  909.8626a    
 



 element     0:m1
       rd  5.963e-25    
       rs  7.031e-21    
       id  148.3336a    
       rx   13.3379k    
       fn  764.8128a    
    total  913.1534a    
 



 **** total output noise voltage         =   1.8230f       sq v/hz
                                         =  42.6968n       v/rt hz
      transfer function value:
        v(vout)/vin                      = 848.9671m      
      equivalent input noise at vin                           
                                         =  50.2926n       /rt hz
 


 **** the results of the sqrt of integral (v**2 / freq)
      from fstart upto    1.0000k       hz. using more freq points 
      results in more accurate total noise values.     

 **** total output noise voltage   =    2.7083u       volts         
 **** total equivalent input noise =    3.1901u                     



 ******  
 hw3_1b

 ****** noise analysis tnom=  25.000 temp=  25.000 ******
 
     frequency =  10.0000k       hz

 


 **** mosfet squared noise voltages (sq v/hz)
 



 element     0:m0
       rd  7.648e-25    
       rs  6.722e-21    
       id  145.0420a    
       rx   13.3379k    
       fn   76.4814a    
    total  221.5301a    
 



 element     0:m1
       rd  5.963e-25    
       rs  7.031e-21    
       id  148.3336a    
       rx   13.3379k    
       fn   76.4813a    
    total  224.8219a    
 



 **** total output noise voltage         = 446.3520a       sq v/hz
                                         =  21.1270n       v/rt hz
      transfer function value:
        v(vout)/vin                      = 848.9671m      
      equivalent input noise at vin                           
                                         =  24.8856n       /rt hz
 


 **** the results of the sqrt of integral (v**2 / freq)
      from fstart upto   10.0000k       hz. using more freq points 
      results in more accurate total noise values.     

 **** total output noise voltage   =    3.6739u       volts         
 **** total equivalent input noise =    4.3274u                     



 ******  
 hw3_1b

 ****** noise analysis tnom=  25.000 temp=  25.000 ******
 
     frequency = 100.0000k       hz

 


 **** mosfet squared noise voltages (sq v/hz)
 



 element     0:m0
       rd  7.648e-25    
       rs  6.722e-21    
       id  145.0420a    
       rx   13.3379k    
       fn    7.6481a    
    total  152.6968a    
 



 element     0:m1
       rd  5.963e-25    
       rs  7.031e-21    
       id  148.3336a    
       rx   13.3379k    
       fn    7.6481a    
    total  155.9887a    
 



 **** total output noise voltage         = 308.6855a       sq v/hz
                                         =  17.5694n       v/rt hz
      transfer function value:
        v(vout)/vin                      = 848.9670m      
      equivalent input noise at vin                           
                                         =  20.6951n       /rt hz
 


 **** the results of the sqrt of integral (v**2 / freq)
      from fstart upto  100.0000k       hz. using more freq points 
      results in more accurate total noise values.     

 **** total output noise voltage   =    6.5897u       volts         
 **** total equivalent input noise =    7.7620u                     



 ******  
 hw3_1b

 ****** noise analysis tnom=  25.000 temp=  25.000 ******
 
     frequency =   1.0000x       hz

 


 **** mosfet squared noise voltages (sq v/hz)
 



 element     0:m0
       rd  7.648e-25    
       rs  6.722e-21    
       id  145.0407a    
       rx   13.3378k    
       fn  7.648e-19    
    total  145.8122a    
 



 element     0:m1
       rd  5.987e-25    
       rs  7.031e-21    
       id  148.3322a    
       rx   13.3378k    
       fn  7.648e-19    
    total  149.1041a    
 



 **** total output noise voltage         = 294.9163a       sq v/hz
                                         =  17.1731n       v/rt hz
      transfer function value:
        v(vout)/vin                      = 848.9650m      
      equivalent input noise at vin                           
                                         =  20.2283n       /rt hz
 


 **** the results of the sqrt of integral (v**2 / freq)
      from fstart upto    1.0000x       hz. using more freq points 
      results in more accurate total noise values.     

 **** total output noise voltage   =   17.6351u       volts         
 **** total equivalent input noise =   20.7724u                     



 ******  
 hw3_1b

 ****** noise analysis tnom=  25.000 temp=  25.000 ******
 
     frequency =  10.0000x       hz

 


 **** mosfet squared noise voltages (sq v/hz)
 



 element     0:m0
       rd  7.643e-25    
       rs  6.720e-21    
       id  144.9115a    
       rx   13.3319k    
       fn  7.641e-20    
    total  144.9946a    
 



 element     0:m1
       rd  8.295e-25    
       rs  7.025e-21    
       id  148.2001a    
       rx   13.3319k    
       fn  7.641e-20    
    total  148.2835a    
 



 **** total output noise voltage         = 293.2781a       sq v/hz
                                         =  17.1254n       v/rt hz
      transfer function value:
        v(vout)/vin                      = 848.7614m      
      equivalent input noise at vin                           
                                         =  20.1769n       /rt hz
 


 **** the results of the sqrt of integral (v**2 / freq)
      from fstart upto   10.0000x       hz. using more freq points 
      results in more accurate total noise values.     

 **** total output noise voltage   =   54.3520u       volts         
 **** total equivalent input noise =   64.0265u                     



 ******  
 hw3_1b

 ****** noise analysis tnom=  25.000 temp=  25.000 ******
 
     frequency = 100.0000x       hz

 


 **** mosfet squared noise voltages (sq v/hz)
 



 element     0:m0
       rd  7.160e-25    
       rs  6.534e-21    
       id  133.0577a    
       rx   12.7750k    
       fn  7.016e-21    
    total  133.0713a    
 



 element     0:m1
       rd  2.201e-23    
       rs  6.450e-21    
       id  136.0773a    
       rx   12.7750k    
       fn  7.016e-21    
    total  136.0908a    
 



 **** total output noise voltage         = 269.1621a       sq v/hz
                                         =  16.4062n       v/rt hz
      transfer function value:
        v(vout)/vin                      = 829.8743m      
      equivalent input noise at vin                           
                                         =  19.7695n       /rt hz
 


 **** the results of the sqrt of integral (v**2 / freq)
      from fstart upto  100.0000x       hz. using more freq points 
      results in more accurate total noise values.     

 **** total output noise voltage   =  168.9007u       volts         
 **** total equivalent input noise =  200.4743u                     



 ******  
 hw3_1b

 ****** noise analysis tnom=  25.000 temp=  25.000 ******
 
     frequency =   1.0000g       hz

 


 **** mosfet squared noise voltages (sq v/hz)
 



 element     0:m0
       rd  2.325e-25    
       rs  4.670e-21    
       id   14.4943a    
       rx    4.2164k    
       fn  7.643e-23    
    total   14.4991a    
 



 element     0:m1
       rd  2.338e-22    
       rs  7.026e-22    
       id   14.8232a    
       rx    4.2164k    
       fn  7.643e-23    
    total   14.8243a    
 



 **** total output noise voltage         =  29.3233a       sq v/hz
                                         =   5.4151n       v/rt hz
      transfer function value:
        v(vout)/vin                      = 609.5704m      
      equivalent input noise at vin                           
                                         =   8.8835n       /rt hz
 


 **** the results of the sqrt of integral (v**2 / freq)
      from fstart upto    1.0000g       hz. using more freq points 
      results in more accurate total noise values.     

 **** total output noise voltage   =  349.4942u       volts         
 **** total equivalent input noise =  471.7861u                     



 ******  
 hw3_1b

 ****** noise analysis tnom=  25.000 temp=  25.000 ******
 
     frequency =  10.0000g       hz

 


 **** mosfet squared noise voltages (sq v/hz)
 



 element     0:m0
       rd  1.741e-25    
       rs  4.444e-21    
       id  1.609e-19    
       rx  444.1807     
       fn  8.482e-26    
    total  1.653e-19    
 



 element     0:m1
       rd  2.594e-22    
       rs  7.811e-24    
       id  1.645e-19    
       rx  444.1805     
       fn  8.482e-26    
    total  1.648e-19    
 



 **** total output noise voltage         = 3.301e-19       sq v/hz
                                         = 574.5230p       v/rt hz
      transfer function value:
        v(vout)/vin                      = 577.2687m      
      equivalent input noise at vin                           
                                         = 995.2436p       /rt hz
 


 **** the results of the sqrt of integral (v**2 / freq)
      from fstart upto   10.0000g       hz. using more freq points 
      results in more accurate total noise values.     

 **** total output noise voltage   =  387.7821u       volts         
 **** total equivalent input noise =  551.2952u                     



 ******  
 hw3_1b

 ****** noise analysis tnom=  25.000 temp=  25.000 ******
 
     frequency = 100.0000g       hz

 


 **** mosfet squared noise voltages (sq v/hz)
 



 element     0:m0
       rd  1.734e-25    
       rs  4.442e-21    
       id  1.610e-21    
       rx   44.4424     
       fn    0.         
    total  6.052e-21    
 



 element     0:m1
       rd  2.597e-22    
       rs  9.193e-26    
       id  1.647e-21    
       rx   44.4435     
       fn    0.         
    total  1.907e-21    
 



 **** total output noise voltage         = 7.959e-21       sq v/hz
                                         =  89.2139p       v/rt hz
      transfer function value:
        v(vout)/vin                      = 576.8982m      
      equivalent input noise at vin                           
                                         = 154.6440p       /rt hz
 


 **** the results of the sqrt of integral (v**2 / freq)
      from fstart upto  100.0000g       hz. using more freq points 
      results in more accurate total noise values.     

 **** total output noise voltage   =  392.0823u       volts         
 **** total equivalent input noise =  560.3558u                     



 ******  
 hw3_1b

 ****** noise analysis tnom=  25.000 temp=  25.000 ******
 
     frequency = 9.999e+11       hz

 


 **** mosfet squared noise voltages (sq v/hz)
 



 element     0:m0
       rd  1.733e-25    
       rs  4.439e-21    
       id  1.609e-23    
       rx    4.4431     
       fn    0.         
    total  4.456e-21    
 



 element     0:m1
       rd  2.610e-22    
       rs  1.462e-26    
       id  1.655e-23    
       rx    4.4550     
       fn    0.         
    total  2.775e-22    
 



 **** total output noise voltage         = 4.733e-21       sq v/hz
                                         =  68.7988p       v/rt hz
      transfer function value:
        v(vout)/vin                      = 576.7438m      
      equivalent input noise at vin                           
                                         = 119.2883p       /rt hz
 


 **** the results of the sqrt of integral (v**2 / freq)
      from fstart upto  9.999e+11       hz. using more freq points 
      results in more accurate total noise values.     

 **** total output noise voltage   =  397.8102u       volts         
 **** total equivalent input noise =  572.3598u                     



 ******  
 hw3_1b

 ****** noise analysis tnom=  25.000 temp=  25.000 ******
 
     frequency = 9.999e+12       hz

 


 **** mosfet squared noise voltages (sq v/hz)
 



 element     0:m0
       rd  1.612e-25    
       rs  4.225e-21    
       id  1.530e-25    
       rx  433.1588m    
       fn    0.         
    total  4.226e-21    
 



 element     0:m1
       rd  3.750e-22    
       rs  1.191e-26    
       id  2.381e-25    
       rx  534.3610m    
       fn    0.         
    total  3.752e-22    
 



 **** total output noise voltage         = 4.601e-21       sq v/hz
                                         =  67.8293p       v/rt hz
      transfer function value:
        v(vout)/vin                      = 562.6952m      
      equivalent input noise at vin                           
                                         = 120.5436p       /rt hz
 


 **** the results of the sqrt of integral (v**2 / freq)
      from fstart upto  9.999e+12       hz. using more freq points 
      results in more accurate total noise values.     

 **** total output noise voltage   =  447.4929u       volts         
 **** total equivalent input noise =  675.4181u                     




          ***** job concluded
 ******  
 hw3_1b

 ****** job statistics summary tnom=  25.000 temp=  25.000 ******
  
  
 ******  Machine Information  ******
 CPU:
 model name	: Intel(R) Xeon(R) CPU E5-2620 0 @ 2.00GHz
 cpu MHz	: 1200.000
  
 OS:
 Linux version 2.6.18-371.9.1.el5 (mockbuild@builder17.centos.org) (gcc version 4.1.2 20080704 (Red Hat 4.1.2-54)) #1 SMP Tue Jun 10 17:49:56 EDT 2014


  ******  HSPICE Threads Information  ******

  Command Line Threads Count :     1
  Available CPU Count        :    12
  Actual Threads Count       :     1


  ******  Circuit Statistics  ******
  # nodes       =       9 # elements   =       5
  # resistors   =       0 # capacitors =       0 # inductors   =       0
  # mutual_inds =       0 # vccs       =       0 # vcvs        =       0
  # cccs        =       0 # ccvs       =       0 # volt_srcs   =       3
  # curr_srcs   =       0 # diodes     =       0 # bjts        =       0
  # jfets       =       0 # mosfets    =       2 # U elements  =       0
  # T elements  =       0 # W elements =       0 # B elements  =       0
  # S elements  =       0 # P elements =       0 # va device   =       0
  # vector_srcs =       0 # N elements =       0


  ******  Runtime Statistics (seconds)  ******

  analysis           time    # points   tot. iter  conv.iter
  op point           0.00           1           6
  ac analysis        1.43      120001      120001
  readin             0.02
  errchk             0.01
