 ****** HSPICE -- L-2016.06-SP2 linux64 (Nov 23 2016) ******                    
  Copyright (c) 1986 - 2018 by Synopsys, Inc. All Rights Reserved.              
  This software and the associated documentation are proprietary
  to Synopsys, Inc. This software may only be used in accordance
  with the terms and conditions of a written license agreement with
  Synopsys, Inc. All other use, reproduction, or distribution of
  this software is strictly prohibited.
  Input File: hw4_1a.sp                                                         
  Command line options: /usr/cad/synopsys/hspice/2016.06-sp2/hspice/linux64/hspice -i hw4_1a.sp -o hw4_1a.lis
 lic:  
 lic: FLEXlm: v11.2.1 
 lic: USER:   u105060012           HOSTNAME: ws40 
 lic: HOSTID: "6cae8b50b632"       PID:      31825 
 lic: Using FLEXlm license file: 
 lic: 26585@lsnctu 
 lic: Checkout 1 hspice 
 lic: License/Maintenance for hspice will expire on 14-may-2019/2017.12 
 lic: 79(in_use)/90(total) FLOATING license(s) on SERVER 26585@lsnctu 
 lic:   
 

  
      
 *****************************************************************
 ******  option summary
 ******
 runlvl  = 3         bypass  = 2.0000    
 **info** dc convergence successful at Newton-Raphson method 
1****** HSPICE -- L-2016.06-SP2 linux64 (Nov 23 2016) ******                    
 ******  
 hw4_1a

 ****** operating point information tnom=  25.000 temp=  25.000 ******
 ****** operating point status is all       simulation time is     0.     
    node    =voltage      node    =voltage      node    =voltage

 +0:vb      =   1.2397  0:vdd     =   1.8000  0:vin     = 500.0000m
 +0:vout    =   1.0002 


 **** voltage sources

 subckt                                   
 element  0:vin      0:vb       0:vdd     
  volts    500.0000m    1.2397     1.8000 
  current    0.         0.      -190.4938n
  power      0.         0.       342.8889n

     total voltage source power dissipation=  342.8889n       watts




 **** mosfets


 subckt                        
 element  0:m0       0:m1      
 model    0:p_18.1   0:n_18.1  
 region     Saturati   Saturati
  id      -190.4922n  190.4918n
  ibs      2.603e-23 -6.915e-23
  ibd      105.0938a -122.1942a
  vgs     -560.2570m  500.0000m
  vds     -799.7521m    1.0002 
  vbs        0.         0.     
  vth     -472.0084m  332.5823m
  vdsat   -111.7565m  152.7538m
  vod      -88.2486m  167.4177m
  beta      35.1905u   14.6485u
  gam eff  557.0847m  507.4459m
  gm         2.7155u    1.9752u
  gds        2.3660n    5.5667n
  gmb      835.9004n  385.7082n
  cdtot      2.3778f    1.0028f
  cgtot     48.6526f   63.8668f
  cstot     54.3516f   65.9235f
  cbtot     20.8013f   18.6462f
  cgs       42.9754f   58.0608f
  cgd      721.9569a  197.5977a







 ****     small-signal transfer characteristics

      v(vout)/vin                              = -248.8710 
      input resistance at             vin      =  1.000e+20
      output resistance at v(vout)             =  125.9989x



 ******  
 hw4_1a

 ****** noise analysis tnom=  25.000 temp=  25.000 ******
 
     frequency =  10.0000        hz

 


 **** mosfet squared noise voltages (sq v/hz)
 



 element     0:m0
       rd  1.523e-21    
       rs    3.4368f    
       id  619.9274p    
       rx  126.0620x    
       fn   22.8318n    
    total   23.4517n    
 



 element     0:m1
       rd  2.409e-20    
       rs    4.3542f    
       id  412.8053p    
       rx  126.0615x    
       fn    1.8922n    
    total    2.3050n    
 



 **** total output noise voltage         =  25.7567n       sq v/hz
                                         = 160.4890u       v/rt hz
      transfer function value:
        v(vout)/vin                      = 248.9965       
      equivalent input noise at vin                           
                                         = 644.5432n       /rt hz
 


 **** the results of the sqrt of integral (v**2 / freq)
      from fstart upto   10.0000        hz. using more freq points 
      results in more accurate total noise values.     

 **** total output noise voltage   =    0.            volts         
 **** total equivalent input noise =    0.                          




          ***** job concluded
 ******  
 hw4_1a

 ****** job statistics summary tnom=  25.000 temp=  25.000 ******
  
  
 ******  Machine Information  ******
 CPU:
 model name	: Intel(R) Xeon(R) CPU E5-2620 0 @ 2.00GHz
 cpu MHz	: 2001.000
  
 OS:
 Linux version 2.6.18-371.9.1.el5 (mockbuild@builder17.centos.org) (gcc version 4.1.2 20080704 (Red Hat 4.1.2-54)) #1 SMP Tue Jun 10 17:49:56 EDT 2014


  ******  HSPICE Threads Information  ******

  Command Line Threads Count :     1
  Available CPU Count        :    12
  Actual Threads Count       :     1


  ******  Circuit Statistics  ******
  # nodes       =       9 # elements   =       5
  # resistors   =       0 # capacitors =       0 # inductors   =       0
  # mutual_inds =       0 # vccs       =       0 # vcvs        =       0
  # cccs        =       0 # ccvs       =       0 # volt_srcs   =       3
  # curr_srcs   =       0 # diodes     =       0 # bjts        =       0
  # jfets       =       0 # mosfets    =       2 # U elements  =       0
  # T elements  =       0 # W elements =       0 # B elements  =       0
  # S elements  =       0 # P elements =       0 # va device   =       0
  # vector_srcs =       0 # N elements =       0


  ******  Runtime Statistics (seconds)  ******

  analysis           time    # points   tot. iter  conv.iter
  op point           0.00           1          11
  ac analysis        0.02         901         901
  readin             0.01
  errchk             0.01
  setup              0.00
  output             0.00


           peak memory used        201.30 megabytes
           total cpu time            0.05 seconds
           total elapsed time        0.86 seconds
           job started at     23:38:36 05/25/2018
           job ended   at     23:38:37 05/25/2018


 lic: Release hspice token(s) 
 lic: total license checkout elapse time:        0.83(s)
