Using: /usr/bin/time -p /usr/cad/synopsys/hspice/cur/hspice/linux/hspice 1a.sp
 ****** HSPICE -- B-2008.09-SP1 32-BIT (Nov 24 2008) linux ******               
  Copyright (C) 2008 Synopsys, Inc. All Rights Reserved.                        
  Unpublished-rights reserved under US copyright laws.
  This program is protected by law and is subject to the 
  terms and conditions of the license agreement from Synopsys.
  Use of this program is your acceptance to be bound by the 
  license agreement. HSPICE is the trademark of Synopsys, Inc.
  Input File: 1a.sp                                                             
 lic:  
 lic: FLEXlm: v8.5b 
 lic: USER:   u102061112           HOSTNAME: ws36 
 lic: HOSTID: e41f1366b708         PID:      23573 
 lic: Using FLEXlm license file: 
 lic: 26585@lsnctu 
 lic: Checkout 1 hspice 
 lic: License/Maintenance for hspice will expire on 14-jun-2017/2016.03 
 lic: FLOATING license(s) on SERVER lsnctu 
 lic:   
 Init: read install configuration file: /usr/cad/synopsys/hspice/cur/hspice/meta.cfg
 Init: hspice initialization file: /usr/cad/synopsys/hspice/cur/hspice/hspice.ini
 .option runlvl
 .option post=1 acct captab
 .option dccap=1 


 *m2 vout vb vdd vdd p_18 w=3u l=3u m=1
 *m1 vout vin gnd gnd n_18 w=3.2u l=3u m=1

 m1 vout vin gnd gnd n_18 w=3.8u l=3.8u m=1
 m2 vout vb vdd vdd p_18 w=3u l=3.8u m=1


 vdd vdd gnd dc=1.8
 vb vb gnd dc=0.9
 vin vin gnd dc=0.5 ac=1

 .op
 *.dc vin 0 1.8 0.001
 .noise v(vout) vin 10000
 .ac dec 100 10 10g
 .end
 

 
      
1****** HSPICE -- B-2008.09-SP1 32-BIT (Nov 24 2008) linux ******               
 ******  
 *1a

  ******  operating point information tnom=  25.000 temp=  25.000 *****
 ***** operating point status is all       simulation time is     0.     
    node    =voltage      node    =voltage      node    =voltage

 +0:vb      = 900.0000m 0:vdd     =   1.8000  0:vin     = 500.0000m
 +0:vout    =   1.0168 


 maximum nodal capacitance=   1.116E-13         on node     0:vdd             

    nodal  capacitance table 

    node    =    cap      node    =    cap      node    =    cap

 +0:vb      =  72.8369f 0:vdd     = 111.5665f 0:vin     =  95.5871f
 +0:vout    =   8.5831f

 

 ****  voltage sources

 subckt                                   
 element  0:vdd      0:vb       0:vin     
  volts      1.8000   900.0000m  500.0000m
  current   -4.0647u    0.         0.     
  power      7.3165u    0.         0.     

     total voltage source power dissipation=    7.3165u       watts




 **** mosfets


 subckt                        
 element  0:m1       0:m2      
 model    0:n_18.1   0:p_18.1  
 region     Saturati   Saturati
  id         4.0647u   -4.0647u
  ibs     -7.582e-22  4.937e-22
  ibd     -346.4918a  137.1954a
  vgs      500.0000m -900.0000m
  vds        1.0168  -783.2248m
  vbs        0.         0.     
  vth      332.0806m -472.4535m
  vdsat    155.2503m -370.5552m
  vod      167.9194m -427.5465m
  beta     300.8600u   51.1117u
  gam eff  507.4460m  557.0846m
  gm        41.6331u   17.2473u
  gds      269.7074n   63.7294n
  gmb        8.1342u    5.6315u
  cdtot      4.8969f    3.6862f
  cgtot     95.5871f   72.8369f
  cstot     99.9308f   82.7617f
  cbtot     32.4376f   28.8048f
  cgs       86.3458f   66.7991f
  cgd        1.2382f    1.1632f



1****** HSPICE -- B-2008.09-SP1 32-BIT (Nov 24 2008) linux ******               
 ******  
 *1a

  ******  noise analysis tnom=  25.000 temp=  25.000 *****

     frequency =  10.0000       hz




 **** mosfet squared noise voltages (sq v/hz)




 element     0:m1
       rd  7.520e-21    
       rs  202.9570a    
       id    4.9402p    
       rx    2.9991x    
       fn  315.0737p    
    total  320.0141p    




 element     0:m2
       rd  1.484e-21    
       rs   54.0477a    
       id    2.2652p    
       rx    2.9991x    
       fn  305.4489p    
    total  307.7141p    




 **** total output noise voltage         = 627.7282p       sq v/hz
                                         =  25.0545u       v/rt hz
      transfer function value:
        v(vout)/vin                      = 124.8603       
      equivalent input noise at vin                           
                                         = 200.6603n       /rt hz



 **** the results of the sqrt of integral (v**2 / freq)
      from fstart upto   10.0000       hz. using more freq points
      results in more accurate total noise values.

 **** total output noise voltage   =    0.            volts
 **** total equivalent input noise =    0.           




          ***** job concluded
1****** HSPICE -- B-2008.09-SP1 32-BIT (Nov 24 2008) linux ******               
 ******  
 *1a

  ******  job statistics summary tnom=  25.000 temp=  25.000 *****

  ******  HSPICE Threads Information  ******
  Command Line Threads Count:                      0
  Available CPU Count:                             8
  Actual Model Evaluation(Load) Threads Count:     1
  Actual Solver Threads Count:                     1


  ******  Circuit Statistics  ******
  # nodes       =       9  # elements   =       5
  # resistors   =       0  # capacitors =       0  # inductors   =       0
  # mutual_inds =       0  # vccs       =       0  # vcvs        =       0
  # cccs        =       0  # ccvs       =       0  # volt_srcs   =       3
  # curr_srcs   =       0  # diodes     =       0  # bjts        =       0
  # jfets       =       0  # mosfets    =       2  # U elements  =       0
  # T elements  =       0  # W elements =       0  # B elements  =       0
  # S elements  =       0  # P elements =       0  # va device   =       0


  ******  Runtime Statistics (seconds)  ******

  analysis           time    # points   tot. iter  conv.iter
  op point           0.00           1          11
  ac analysis        0.01         901         901
  readin             0.02
  errchk             0.01
  setup              0.00
  output             0.00


           total memory used          209  kbytes
           total cpu time            0.04 seconds
           total elapsed time        0.19 seconds
           job started at     22:14:02 05/24/2016
           job ended   at     22:14:02 05/24/2016


 Init: hspice initialization file: /usr/cad/synopsys/hspice/cur/hspice/hspice.ini
 lic: Release hspice token(s) 
