Using: /usr/bin/time -p /usr/cad/synopsys/hspice/cur/hspice/linux/hspice 2a.sp
 ****** HSPICE -- B-2008.09-SP1 32-BIT (Nov 24 2008) linux ******               
  Copyright (C) 2008 Synopsys, Inc. All Rights Reserved.                        
  Unpublished-rights reserved under US copyright laws.
  This program is protected by law and is subject to the 
  terms and conditions of the license agreement from Synopsys.
  Use of this program is your acceptance to be bound by the 
  license agreement. HSPICE is the trademark of Synopsys, Inc.
  Input File: 2a.sp                                                             
 lic:  
 lic: FLEXlm: v8.5b 
 lic: USER:   u102061112           HOSTNAME: ws36 
 lic: HOSTID: e41f1366b708         PID:      9570 
 lic: Using FLEXlm license file: 
 lic: 26585@lsnctu 
 lic: Checkout 1 hspice 
 lic: License/Maintenance for hspice will expire on 14-jun-2017/2016.03 
 lic: FLOATING license(s) on SERVER lsnctu 
 lic:   
 Init: read install configuration file: /usr/cad/synopsys/hspice/cur/hspice/meta.cfg
 Init: hspice initialization file: /usr/cad/synopsys/hspice/cur/hspice/hspice.ini
 .option runlvl
 .option post dccap=1 acout=0 acct

 m4 vout vx vdd vdd p_18 w=11u l=6u m=1
 m3 vx vx vdd vdd p_18 w=11u l=6u m=1
 m2 vout vin- vp gnd n_18 w=11u l=4u m=1
 m1 vx vin+ vp gnd n_18 w=11u l=4u m=1
 m0 vp vb gnd gnd n_18 w=5u l=6u m=1
 m5 vb vb gnd gnd n_18 w=5u l=6u m=1

 c0 vout gnd 2p
 vdd vdd gnd dc=1.8
 vin+ vin+ gnd dc=1 ac=0.5 180
 vin- vin- gnd dc=1 ac=0.5
 i0 vdd vb 9u


 .op
 .ac dec 10 10 100x
 .dc vin+ 0 1.8 0.01
 .pz v(vout) vin+
 .pz v(vout) vin-
 *.plot ac gain=par("v(vout)/v(vin+)-v(vin-)")
 .plot ac gain=par("v(vout)/v(vin+)")
 .end
 

 
      
1****** HSPICE -- B-2008.09-SP1 32-BIT (Nov 24 2008) linux ******               
 ******  
 *2a

  ******  operating point information tnom=  25.000 temp=  25.000 *****
 ***** operating point status is all       simulation time is     0.     
    node    =voltage      node    =voltage      node    =voltage

 +0:vb      = 616.3644m 0:vdd     =   1.8000  0:vin+    =   1.0000 
 +0:vin-    =   1.0000  0:vout    =   1.0508  0:vp      = 488.6642m
 +0:vx      =   1.0508 


 ****  voltage sources

 subckt                                   
 element  0:vdd      0:vin+     0:vin-    
  volts      1.8000     1.0000     1.0000 
  current  -17.9486u    0.         0.     
  power     32.3074u    0.         0.     

     total voltage source power dissipation=   32.3074u       watts



 ***** current sources

 subckt             
 element  0:i0      
  volts      1.1836 
  current    9.0000u
  power    -10.6527u


     total current source power dissipation= -10.6527u       watts


 **** mosfets


 subckt                                                                    
 element  0:m4       0:m3       0:m2       0:m1       0:m0       0:m5      
 model    0:p_18.1   0:p_18.1   0:n_18.1   0:n_18.1   0:n_18.1   0:n_18.1  
 region     Saturati   Saturati   Saturati   Saturati   Saturati   Saturati
  id        -4.4743u   -4.4743u    4.4743u    4.4743u    8.9485u    9.0000u
  ibs      4.444e-22  4.444e-22 -414.6421a -414.6421a -1.584e-21 -1.593e-21
  ibd      393.5220a  393.5220a -891.6134a -891.6134a -207.8762a -262.1998a
  vgs     -749.2126m -749.2126m  511.3358m  511.3358m  616.3644m  616.3644m
  vds     -749.2126m -749.2126m  562.1232m  562.1232m  488.6642m  616.3644m
  vbs        0.         0.      -488.6642m -488.6642m    0.         0.     
  vth     -466.2668m -466.2668m  421.3412m  421.3412m  324.8180m  324.4565m
  vdsat   -249.6890m -249.6890m  109.3175m  109.3175m  243.6217m  243.8898m
  vod     -282.9459m -282.9459m   89.9946m   89.9946m  291.5463m  291.9078m
  beta     126.3682u  126.3682u  835.8639u  835.8639u  250.7861u  250.7846u
  gam eff  557.0847m  557.0847m  519.6460m  519.6460m  507.4460m  507.4460m
  gm        28.4653u   28.4653u   67.2038u   67.2038u   57.8179u   58.1126u
  gds       43.1167n   43.1167n  520.8351n  520.8351n  447.3432n  375.2536n
  gmb        8.9885u    8.9885u   10.8052u   10.8052u   10.9781u   11.0062u
  cdtot     13.0583f   13.0583f   14.0168f   14.0168f    8.3055f    7.3441f
  cgtot    422.4634f  422.4634f  279.3972f  279.3972f  197.9331f  197.5807f
  cstot    476.0296f  476.0296f  283.3290f  283.3290f  205.0492f  205.0506f
  cbtot    158.3424f  158.3424f   82.2331f   82.2331f   61.1888f   60.9686f
  cgs      387.6180f  387.6180f  252.7353f  252.7353f  180.7343f  180.5907f
  cgd        4.1966f    4.1966f    3.2439f    3.2439f    2.0891f    1.7569f



 ***************************************************
   ******   pole/zero analysis  
 
 
    input =  0:vin-          output = v(vout)
 
       poles (rad/sec)                 poles ( hertz)
 real            imag            real            imag            
 -276.184k       0.              -43.9560k       0.              
 -33.2610x       0.              -5.29365x       0.              
 -146.202x       0.              -23.2688x       0.              
 -275.258x       0.              -43.8087x       0.              
 
       zeros (rad/sec)                 zeros ( hertz)
 real            imag            real            imag            
 -67.0891x       0.              -10.6776x       0.              
 -144.959x       0.              -23.0709x       0.              
 -260.056x       0.              -41.3892x       0.              
 7.59185g        0.              1.20828g        0.              
 
  ***** constant factor = 2.29267m
 ******  
 *2a

  ******  ac analysis tnom=  25.000 temp=  25.000 *****

a


      freq       gain            
 (a       )       0.          100.0000      200.0000      300.0000     400.0000 
                      +             +             +             +             + 
   10.0000   238.145 -+------+------+------+------+----a-+------+------+------+-
   12.5893   238.145  +      +      +      +      +    a +      +      +      + 
   15.8489   238.145  +      +      +      +      +    a +      +      +      + 
   19.9526   238.145  +      +      +      +      +    a +      +      +      + 
   25.1189   238.145  +      +      +      +      +    a +      +      +      + 
   31.6228   238.145  +      +      +      +      +    a +      +      +      + 
   39.8107   238.145  +      +      +      +      +    a +      +      +      + 
   50.1187   238.145  +      +      +      +      +    a +      +      +      + 
   63.0957   238.145  +      +      +      +      +    a +      +      +      + 
   79.4328   238.145  +      +      +      +      +    a +      +      +      + 
  100.0000   238.145 -+------+------+------+------+----a-+------+------+------+-
  125.8925   238.144  +      +      +      +      +    a +      +      +      + 
  158.4893   238.144  +      +      +      +      +    a +      +      +      + 
  199.5262   238.143  +      +      +      +      +    a +      +      +      + 
  251.1886   238.141  +      +      +      +      +    a +      +      +      + 
  316.2278   238.139  +      +      +      +      +    a +      +      +      + 
  398.1072   238.135  +      +      +      +      +    a +      +      +      + 
  501.1872   238.130  +      +      +      +      +    a +      +      +      + 
  630.9573   238.121  +      +      +      +      +    a +      +      +      + 
  794.3282   238.106  +      +      +      +      +    a +      +      +      + 
    1.0000k  238.084 -+------+------+------+------+----a-+------+------+------+-
    1.2589k  238.048  +      +      +      +      +    a +      +      +      + 
    1.5849k  237.990  +      +      +      +      +    a +      +      +      + 
    1.9953k  237.900  +      +      +      +      +    a +      +      +      + 
    2.5119k  237.757  +      +      +      +      +    a +      +      +      + 
    3.1623k  237.531  +      +      +      +      +    a +      +      +      + 
    3.9811k  237.174  +      +      +      +      +    a +      +      +      + 
    5.0119k  236.612  +      +      +      +      +    a +      +      +      + 
    6.3096k  235.729  +      +      +      +      +    a +      +      +      + 
    7.9433k  234.349  +      +      +      +      +    a +      +      +      + 
   10.0000k  232.211 -+------+------+------+------+----a-+------+------+------+-
   12.5893k  228.940  +      +      +      +      +   a  +      +      +      + 
   15.8489k  224.027  +      +      +      +      +  a   +      +      +      + 
   19.9526k  216.849  +      +      +      +      + a    +      +      +      + 
   25.1189k  206.764  +      +      +      +      +a     +      +      +      + 
   31.6228k  193.314  +      +      +      +     a+      +      +      +      + 
   39.8107k  176.508  +      +      +      +   a  +      +      +      +      + 
   50.1187k  157.021  +      +      +      +a     +      +      +      +      + 
   63.0957k  136.121  +      +      +    a +      +      +      +      +      + 
   79.4328k  115.296  +      +      + a    +      +      +      +      +      + 
  100.0000k   95.817 -+------+-----a+------+------+------+------+------+------+-
  125.8925k   78.485  +      +   a  +      +      +      +      +      +      + 
  158.4893k   63.624  +      + a    +      +      +      +      +      +      + 
  199.5262k   51.208  +      a      +      +      +      +      +      +      + 
  251.1886k   41.015  +     a+      +      +      +      +      +      +      + 
  316.2278k   32.744  +    a +      +      +      +      +      +      +      + 
  398.1072k   26.080  +   a  +      +      +      +      +      +      +      + 
  501.1872k   20.737  +  a   +      +      +      +      +      +      +      + 
  630.9573k   16.463  + a    +      +      +      +      +      +      +      + 
  794.3282k   13.049  + a    +      +      +      +      +      +      +      + 
    1.0000x   10.322 -+a-----+------+------+------+------+------+------+------+-
    1.2589x    8.142  +a     +      +      +      +      +      +      +      + 
    1.5849x    6.396  +a     +      +      +      +      +      +      +      + 
    1.9953x    4.995  +a     +      +      +      +      +      +      +      + 
    2.5119x    3.869  +a     +      +      +      +      +      +      +      + 
    3.1623x    2.966  a      +      +      +      +      +      +      +      + 
    3.9811x    2.246  a      +      +      +      +      +      +      +      + 
    5.0119x    1.679  a      +      +      +      +      +      +      +      + 
    6.3096x    1.242  a      +      +      +      +      +      +      +      + 
    7.9433x  914.543m a      +      +      +      +      +      +      +      + 
   10.0000x  674.543m-a------+------+------+------+------+------+------+------+-
   12.5893x  501.562m a      +      +      +      +      +      +      +      + 
   15.8489x  377.406m a      +      +      +      +      +      +      +      + 
   19.9526x  287.646m a      +      +      +      +      +      +      +      + 
   25.1189x  221.775m a      +      +      +      +      +      +      +      + 
   31.6228x  172.572m a      +      +      +      +      +      +      +      + 
   39.8107x  135.202m a      +      +      +      +      +      +      +      + 
   50.1187x  106.432m a      +      +      +      +      +      +      +      + 
   63.0957x   84.057m a      +      +      +      +      +      +      +      + 
   79.4328x   66.532m a      +      +      +      +      +      +      +      + 
  100.0000x   52.740m-a------+------+------+------+------+------+------+------+-
                      +             +             +             +             + 

b


          ***** job concluded
1****** HSPICE -- B-2008.09-SP1 32-BIT (Nov 24 2008) linux ******               
 ******  
 *2a

  ******  job statistics summary tnom=  25.000 temp=  25.000 *****

  ******  HSPICE Threads Information  ******
  Command Line Threads Count:                      0
  Available CPU Count:                             8
  Actual Model Evaluation(Load) Threads Count:     1
  Actual Solver Threads Count:                     1


  ******  Circuit Statistics  ******
  # nodes       =      20  # elements   =      11
  # resistors   =       0  # capacitors =       1  # inductors   =       0
  # mutual_inds =       0  # vccs       =       0  # vcvs        =       0
  # cccs        =       0  # ccvs       =       0  # volt_srcs   =       3
  # curr_srcs   =       1  # diodes     =       0  # bjts        =       0
  # jfets       =       0  # mosfets    =       6  # U elements  =       0
  # T elements  =       0  # W elements =       0  # B elements  =       0
  # S elements  =       0  # P elements =       0  # va device   =       0


  ******  Runtime Statistics (seconds)  ******

  analysis           time    # points   tot. iter  conv.iter
  op point           0.00           1          19
  dc sweep           0.01         181         427
  ac analysis        0.01          71          71
  readin             0.02
  errchk             0.01
  setup              0.00
  output             0.00


           total memory used          206  kbytes
           total cpu time            0.05 seconds
           total elapsed time        0.20 seconds
           job started at     20:11:42 05/26/2016
           job ended   at     20:11:42 05/26/2016


 Init: hspice initialization file: /usr/cad/synopsys/hspice/cur/hspice/hspice.ini
 lic: Release hspice token(s) 
