 ****** HSPICE -- L-2016.06-SP2 linux64 (Nov 23 2016) ******                    
  Copyright (c) 1986 - 2018 by Synopsys, Inc. All Rights Reserved.              
  This software and the associated documentation are proprietary
  to Synopsys, Inc. This software may only be used in accordance
  with the terms and conditions of a written license agreement with
  Synopsys, Inc. All other use, reproduction, or distribution of
  this software is strictly prohibited.
  Input File: hw2_1.sp                                                          
  Command line options: /usr/cad/synopsys/hspice/2016.06-sp2/hspice/linux64/hspice -i hw2_1.sp -o hw2_1.lis
 lic:  
 lic: FLEXlm: v11.2.1 
 lic: USER:   u105060012           HOSTNAME: ws40 
 lic: HOSTID: "6eae8b50b631"       PID:      3529 
 lic: Using FLEXlm license file: 
 lic: 26585@lscic.cic.org.tw 
 lic: Checkout 1 hspice 
 lic: License/Maintenance for hspice will expire on 14-may-2019/2018.09 
 lic: 41(in_use)/150(total) FLOATING license(s) on SERVER 26585@lscic.cic.org.tw 
 lic:   
 

  
      
 *****************************************************************
 ******  option summary
 ******
 runlvl  = 3         bypass  = 2.0000    
 **info** dc convergence successful at Newton-Raphson method 
1****** HSPICE -- L-2016.06-SP2 linux64 (Nov 23 2016) ******                    
 ******  
 hw2_1a

 ****** operating point information tnom=  25.000 temp=  25.000 ******
 ****** operating point status is all       simulation time is     0.     
    node    =voltage      node    =voltage      node    =voltage

 +0:in      = 900.0000m 0:vdd     =   1.8000  0:vout    = 899.9575m


 **** voltage sources

 subckt                        
 element  0:vdd      0:vin     
  volts      1.8000   900.0000m
  current -205.4954u    0.     
  power    369.8917u    0.     

     total voltage source power dissipation=  369.8917u       watts




 **** mosfets


 subckt                        
 element  0:mp       0:mn      
 model    0:p_18.1   0:n_18.1  
 region     Saturati   Saturati
  id      -205.4954u  205.4954u
  ibs      2.180e-20 -4.743e-20
  ibd      278.3703a -179.7065a
  vgs     -900.0000m  900.0000m
  vds     -900.0425m  899.9575m
  vbs        0.         0.     
  vth     -537.3179m  501.2802m
  vdsat   -367.6634m  285.0649m
  vod     -362.6821m  398.7198m
  beta       2.8370m    3.1313m
  gam eff  557.0841m  507.4526m
  gm       857.3803u  748.8392u
  gds       39.9136u   38.0221u
  gmb      270.4250u  108.6135u
  cdtot      6.7944f    2.4115f
  cgtot     11.8287f    3.5026f
  cstot     16.5300f    5.0363f
  cbtot     13.3262f    4.5130f
  cgs        8.9716f    2.5600f
  cgd        2.1679f  650.9875a




          ***** job concluded
 ******  
 hw2_1a

 ****** job statistics summary tnom=  25.000 temp=  25.000 ******
  
  
 ******  Machine Information  ******
 CPU:
 model name	: Intel(R) Xeon(R) CPU E5-2620 0 @ 2.00GHz
 cpu MHz	: 2001.000
  
 OS:
 Linux version 2.6.18-371.9.1.el5 (mockbuild@builder17.centos.org) (gcc version 4.1.2 20080704 (Red Hat 4.1.2-54)) #1 SMP Tue Jun 10 17:49:56 EDT 2014


  ******  HSPICE Threads Information  ******

  Command Line Threads Count :     1
  Available CPU Count        :    12
  Actual Threads Count       :     1


  ******  Circuit Statistics  ******
  # nodes       =       8 # elements   =       4
  # resistors   =       0 # capacitors =       0 # inductors   =       0
  # mutual_inds =       0 # vccs       =       0 # vcvs        =       0
  # cccs        =       0 # ccvs       =       0 # volt_srcs   =       2
  # curr_srcs   =       0 # diodes     =       0 # bjts        =       0
  # jfets       =       0 # mosfets    =       2 # U elements  =       0
  # T elements  =       0 # W elements =       0 # B elements  =       0
  # S elements  =       0 # P elements =       0 # va device   =       0
  # vector_srcs =       0 # N elements =       0


  ******  Runtime Statistics (seconds)  ******

  analysis           time    # points   tot. iter  conv.iter
  op point           0.00           1           9
  dc sweep           0.01         181         415
  readin             0.01
  errchk             0.00
  setup              0.00
  output             0.00


           peak memory used        195.45 megabytes
           total cpu time            0.02 seconds
           total elapsed time        1.64 seconds
           job started at     01:31:45 10/30/2018
           job ended   at     01:31:46 10/30/2018


 lic: Release hspice token(s) 
 lic: total license checkout elapse time:        1.60(s)
