Using: /usr/cad/synopsys/hspice/2016.06-sp2/hspice/linux64/hspice 13_psrp.sp
 ****** HSPICE -- L-2016.06-SP2 linux64 (Nov 23 2016) ******                    
  Copyright (c) 1986 - 2017 by Synopsys, Inc. All Rights Reserved.              
  This software and the associated documentation are proprietary
  to Synopsys, Inc. This software may only be used in accordance
  with the terms and conditions of a written license agreement with
  Synopsys, Inc. All other use, reproduction, or distribution of
  this software is strictly prohibited.
  Input File: 13_psrp.sp                                                        
  Command line options: /usr/cad/synopsys/hspice/2016.06-sp2/hspice/linux64/hspice 13_psrp.sp
 lic:  
 lic: FLEXlm: v11.2.1 
 lic: USER:   u103061129           HOSTNAME: ws35 
 lic: HOSTID: "e41f136676d0"       PID:      22489 
 lic: Using FLEXlm license file: 
 lic: 26585@lscic.cic.org.tw 
 lic: Checkout 1 hspice 
 lic: License/Maintenance for hspice will expire on 14-jun-2018/2017.03 
 lic: 149(in_use)/150(total) FLOATING license(s) on SERVER 26585@lscic.cic.org.tw 
 lic:   
  **info**  the obsolete option acout is ignored
  **info**  the obsolete option acout is ignored
  **warning** (13_psrp.sp:6) runlvl smaller than 5, reset to 5 when accurate turned on

 **warning**  runlvl smaller than 5, reset to 5 when accurate turned on
1****** HSPICE -- L-2016.06-SP2 linux64 (Nov 23 2016) ******                    
 ******  
 psr+

 ****** circuit name directory
 circuit number to circuit name directory
   number circuitname                     definition         multiplier
        0 main circuit
        1 xop.                            aicopamp           1.00 
 

  
      
 **info** set option symb=1 internally to help for convergence.
 *****************************************************************
 ******  option summary
 ******
 runlvl  = 5         bypass  = 2.0000    
  Opening plot unit= 15
 file=13_psrp.pa0

 **info** dc convergence successful at GMINDC ramping method 
 ******  
 psr+

 ****** operating point information tnom=  25.000 temp=  25.000 ******
 ****** operating point status is all       simulation time is     0.     
    node    =voltage      node    =voltage      node    =voltage

 +0:iref    = 462.8145m 0:vdd     =   1.4000  0:vinn    = 700.0000m
 +0:vinp    = 700.0000m 0:vocm    = 700.0000m 0:von     = 949.9822m
 +0:vop     = 949.9820m 0:vss     =   0.      1:net01   = 199.1213m
 +1:net02   = 993.3397m 1:net03   = 993.3397m 1:net04   = 747.7637m
 +1:net05   = 747.7637m 1:net06   = 807.9386m 1:net07   = 807.9386m
 +1:net08   =   1.0105  1:net09   = 876.7998m 1:net10   = 648.2513m
 +1:net11   =   1.0730  1:vb1     = 324.4199m 1:vb2     = 421.2693m
 +1:vcmc    = 599.0236m 1:von_1   = 396.7242m 1:von_2   = 501.7304m
 +1:vop_1   = 396.7242m 1:vop_2   = 501.7304m


 **** voltage sources

 subckt                                                         
 element  0:vdd      0:vgnd     0:vinn     0:vinp     0:vocm    
  volts      1.4000     0.       700.0000m  700.0000m  700.0000m
  current   -1.7204m    1.6267m    0.         0.        17.6800u
  power      2.4086m    0.         0.         0.       -12.3760u

     total voltage source power dissipation=    2.3962m       watts



 **** current sources

 subckt             
 element  0:iref    
  volts    937.1855m
  current   55.0000u
  power    -51.5452u


     total current source power dissipation= -51.5452u       watts

 **** resistors

 subckt                         xop        xop        xop       
 element  0:rload1   0:rload2   1:rr1      1:rr2      1:rr0     
  r value   25.0000k   25.0000k   15.0000k   15.0000k   10.0000k
  v drop   949.9822m  949.9820m  -60.5467m  -60.5465m  176.7998m
  current   37.9993u   37.9993u   -4.0364u   -4.0364u   17.6800u
  power     36.0986u   36.0986u  244.3938n  244.3921n    3.1258u



 **** mosfets


 subckt   xop        xop        xop        xop        xop        xop       
 element  1:mb4      1:mb3      1:mb1      1:mb2      1:mb0      1:mm11    
 model    0:n_18.1   0:n_18.1   0:n_18.1   0:p_18.1   0:p_18.1   0:n_18.1  
 region     Saturati   Saturati   Saturati   Saturati   Saturati   Saturati
  id        55.0000u  267.2928u  272.7592u -267.2928u -272.7593u  207.6030u
  ibs     -1.501e-20 -7.294e-20 -7.443e-20  4.873e-20  4.973e-20 -6.189e-20
  ibd       -2.9143f  -10.2142f  -13.2635f    2.8281f    3.6887f   -5.7075f
  vgs      462.8145m  462.8145m  462.8145m   -1.0756  -978.7307m  462.8145m
  vds      462.8145m  324.4199m  421.2693m   -1.0756  -978.7307m  199.1213m
  vbs        0.         0.         0.         0.         0.         0.     
  vth      398.8257m  399.8754m  399.1408m -510.3507m -510.3492m  403.0470m
  vdsat     94.9141m   94.2988m   94.7291m -509.5688m -428.3246m   92.6274m
  vod       63.9888m   62.9391m   63.6737m -565.2294m -468.3815m   59.7674m
  beta      14.8175m   74.0902m   74.0882m    1.8224m    2.6644m   61.6206m
  gam eff  507.4460m  507.4460m  507.4460m  557.0845m  557.0846m  507.4460m
  gm       914.9631u    4.4704m    4.5454m  845.3971u    1.0414m    3.5125m
  gds       10.6927u   59.2067u   54.4687u    9.9552u   10.6560u   71.8227u
  gmb      187.2404u  917.8424u  931.0919u  272.5161u  329.9475u  723.5069u
  cdtot     71.2553f  369.3565f  359.7803f   36.2729f   52.7130f  329.4412f
  cgtot    312.4966f    1.5608p    1.5618p  193.4995f  277.4646f    1.2961p
  cstot    351.2484f    1.7512p    1.7548p  233.1801f  334.2143f    1.4495p
  cbtot    191.6583f  969.6247f  961.4886f  115.4133f  166.9573f  827.5909f
  cgs      265.3949f    1.3248p    1.3262p  169.6647f  242.5154f    1.0956p
  cgd       17.1929f   86.7514f   86.1025f   10.8602f   15.5606f   75.3550f



 subckt   xop        xop        xop        xop        xop        xop       
 element  1:mm12     1:mm13     1:mm14a    1:mm14b    1:mm15a    1:mm15b   
 model    0:n_18.1   0:n_18.1   0:p_18.1   0:p_18.1   0:p_18.1   0:p_18.1  
 region     Saturati   Saturati   Saturati   Saturati   Saturati   Saturati
  id       103.8015u  103.8015u -235.9881u -235.9881u -132.1863u -132.1863u
  ibs       -2.8538f   -2.8538f  4.302e-20  4.302e-20  2.410e-20  2.410e-20
  ibd      -14.2365f  -14.2365f    3.2078f    3.2078f    7.3209f    7.3209f
  vgs      500.8787m  500.8787m -800.9764m -800.9764m -668.9199m -668.9199m
  vds      794.2185m  794.2185m -406.6603m -406.6603m -596.6155m -596.6155m
  vbs     -199.1213m -199.1213m    0.         0.         0.         0.     
  vth      490.7229m  490.7229m -510.3469m -510.3469m -510.3459m -510.3459m
  vdsat     75.9197m   75.9197m -280.4571m -280.4571m -173.1849m -173.1849m
  vod       10.1558m   10.1558m -290.6295m -290.6295m -158.5739m -158.5739m
  beta      64.5123m   64.5123m    5.7990m    5.7990m    9.3051m    9.3051m
  gam eff  512.7453m  512.7453m  557.0846m  557.0846m  557.0846m  557.0846m
  gm         2.1065m    2.1065m    1.4267m    1.4267m    1.3431m    1.3431m
  gds       31.5323u   31.5323u   27.8922u   27.8922u    6.9808u    6.9808u
  gmb      350.1631u  350.1631u  436.3690u  436.3690u  399.7601u  399.7601u
  cdtot    136.8280f  136.8280f  129.9394f  129.9394f  183.1078f  183.1078f
  cgtot    275.2733f  275.2733f  584.4168f  584.4168f  899.6031f  899.6031f
  cstot    327.7346f  327.7346f  698.6212f  698.6212f    1.0795p    1.0795p
  cbtot    287.8701f  287.8701f  365.5260f  365.5260f  563.6925f  563.6925f
  cgs      193.5869f  193.5869f  505.8445f  505.8445f  775.8368f  775.8368f
  cgd       37.0490f   37.0490f   35.6666f   35.6666f   50.5947f   50.5947f



 subckt   xop        xop        xop        xop        xop        xop       
 element  1:mm16a    1:mm16b    1:mm21a    1:mm21b    1:mm22a    1:mm22b   
 model    0:n_18.1   0:n_18.1   0:p_18.1   0:p_18.1   0:n_18.1   0:n_18.1  
 region     Saturati   Saturati   Saturati   Saturati   Saturati   Saturati
  id       122.1358u  122.1358u  -47.0148u  -47.0148u   47.0147u   47.0147u
  ibs     -3.333e-20 -3.333e-20  7.856e-21  7.856e-21 -9.744e-21 -9.744e-21
  ibd       -5.6208f   -5.6208f  432.9581a  432.9581a   -6.2490f   -6.2490f
  vgs      462.8145m  462.8145m -978.7307m -978.7307m  396.7242m  396.7242m
  vds      396.7242m  396.7242m -898.2696m -898.2696m  501.7304m  501.7304m
  vbs        0.         0.         0.         0.         0.         0.     
  vth      399.3270m  399.3270m -514.1979m -514.1979m  391.6720m  391.6720m
  vdsat     94.6199m   94.6199m -425.5692m -425.5692m   65.1577m   65.1577m
  vod       63.4875m   63.4875m -464.5328m -464.5328m    5.0521m    5.0521m
  beta      33.3399m   33.3399m  465.7144u  465.7144u   38.6902m   38.6902m
  gam eff  507.4460m  507.4460m  557.0845m  557.0845m  507.4459m  507.4459m
  gm         2.0373m    2.0373m  178.9355u  178.9355u  997.1431u  997.1431u
  gds       24.8712u   24.8712u    2.4833u    2.4833u   11.0766u   11.0766u
  gmb      417.5754u  417.5754u   56.4645u   56.4645u  207.3018u  207.3018u
  cdtot    162.8945f  162.8945f    7.3121f    7.3121f  177.1599f  177.1599f
  cgtot    702.6544f  702.6544f   31.3519f   31.3519f  603.9982f  603.9982f
  cstot    789.2926f  789.2926f   38.2379f   38.2379f  624.7340f  624.7340f
  cbtot    433.5543f  433.5543f   20.6085f   20.6085f  481.8489f  481.8489f
  cgs      596.6146f  596.6146f   27.0797f   27.0797f  432.8848f  432.8848f
  cgd       38.7953f   38.7953f    2.1719f    2.1719f   46.2137f   46.2137f



 subckt   xop        xop        xop        xop        xop        xop       
 element  1:mm31a    1:mm31b    1:mm32a    1:mm32b    1:mm33a    1:mm33b   
 model    0:p_18.1   0:p_18.1   0:n_18.1   0:n_18.1   0:p_18.1   0:p_18.1  
 region     Saturati   Saturati   Saturati   Saturati   Saturati   Saturati
  id       -46.3486u  -46.3486u   46.3487u   46.3487u -114.2537u -114.2537u
  ibs      7.745e-21  7.745e-21 -1.031e-20 -1.031e-20  1.909e-20  1.909e-20
  ibd        2.5150f    2.5150f   -1.5990f   -1.5990f    4.3382f    4.3382f
  vgs     -652.2363m -652.2363m  501.7304m  501.7304m -652.2363m -652.2363m
  vds     -652.2363m -652.2363m  747.7637m  747.7637m -450.0178m -450.0180m
  vbs        0.         0.         0.         0.         0.         0.     
  vth     -514.1938m -514.1938m  391.5223m  391.5223m -514.1938m -514.1938m
  vdsat   -158.2574m -158.2574m  123.8492m  123.8492m -158.2547m -158.2547m
  vod     -138.0425m -138.0425m  110.2081m  110.2081m -138.0425m -138.0425m
  beta       4.0220m    4.0220m    6.2037m    6.2037m   10.0551m   10.0551m
  gam eff  557.0846m  557.0846m  507.4460m  507.4460m  557.0846m  557.0846m
  gm       515.8427u  515.8426u  612.7437u  612.7436u    1.2710m    1.2710m
  gds        2.8288u    2.8288u    6.7990u    6.7990u    9.2584u    9.2584u
  gmb      152.2501u  152.2501u  123.0837u  123.0836u  374.9654u  374.9654u
  cdtot     60.7877f   60.7877f   27.3351f   27.3351f  159.2834f  159.2834f
  cgtot    248.4008f  248.4008f  136.4905f  136.4905f  621.6034f  621.6034f
  cstot    301.6473f  301.6473f  153.8713f  153.8713f  753.7738f  753.7738f
  cbtot    169.6523f  169.6523f   76.4667f   76.4667f  430.7067f  430.7067f
  cgs      211.1844f  211.1844f  118.3997f  118.3997f  528.3710f  528.3710f
  cgd       17.2776f   17.2776f    7.0970f    7.0970f   43.5493f   43.5493f



 subckt   xop        xop        xop        xop        xop        xop       
 element  1:mm34a    1:mm34b    1:mmc1a    1:mmc1b    1:mmc2a    1:mmc2b   
 model    0:n_18.1   0:n_18.1   0:p_18.1   0:p_18.1   0:p_18.1   0:p_18.1  
 region     Saturati   Saturati   Saturati   Saturati   Saturati   Saturati
  id        80.2907u   80.2907u  -80.7512u  -80.7512u  -80.7512u  -80.7512u
  ibs     -1.786e-20 -1.786e-20  1.472e-20  1.472e-20  1.349e-20  1.349e-20
  ibd      -20.3144f  -20.3144f  674.5943a  674.5943a  792.8078a  792.8078a
  vgs      396.7242m  396.7242m -978.7307m -978.7307m -807.9386m -807.9386m
  vds      949.9822m  949.9820m -592.0614m -592.0614m -411.2144m -411.2144m
  vbs        0.         0.         0.         0.         0.         0.     
  vth      389.9898m  389.9898m -510.3491m -510.3491m -514.1952m -514.1952m
  vdsat     65.8626m   65.8626m -428.3246m -428.3246m -284.1779m -284.1779m
  vod        6.7344m    6.7344m -468.3816m -468.3816m -293.7433m -293.7433m
  beta      61.8275m   61.8275m  805.5309u  805.5309u    1.9367m    1.9367m
  gam eff  507.4459m  507.4459m  557.0846m  557.0846m  557.0846m  557.0846m
  gm         1.6846m    1.6846m  305.7567u  305.7567u  479.9658u  479.9658u
  gds       17.7660u   17.7660u    6.9070u    6.9070u   10.8621u   10.8621u
  gmb      346.7115u  346.7115u   96.8809u   96.8809u  146.2978u  146.2978u
  cdtot    264.4623f  264.4623f   17.8071f   17.8071f   33.4493f   33.4493f
  cgtot    980.2095f  980.2095f   84.1967f   84.1967f  126.0876f  126.0876f
  cstot      1.0205p    1.0205p  100.9962f  100.9962f  152.7865f  152.7865f
  cbtot    755.3477f  755.3477f   51.6214f   51.6214f   85.9857f   85.9857f
  cgs      708.2063f  708.2063f   73.3716f   73.3716f  107.9630f  107.9630f
  cgd       73.7758f   73.7758f    5.0377f    5.0377f    9.2611f    9.2611f



 subckt   xop        xop        xop        xop        xop        xop       
 element  1:mmc3a    1:mmc3b    1:mm1      1:mm2      1:mm3      1:mm4     
 model    0:n_18.1   0:n_18.1   0:p_18.1   0:p_18.1   0:n_18.1   0:p_18.1  
 region     Saturati   Saturati   Saturati   Saturati   Saturati   Saturati
  id        90.8018u   90.8018u  -19.4608u  -11.3879u   11.3879u  -19.7151u
  ibs     -1.905e-20 -1.905e-20  2.660e-21  1.556e-21 -3.107e-21  2.694e-21
  ibd       -2.8808f   -2.8808f  204.7159a  190.4230a -816.3994a  275.0081a
  vgs      462.8145m  462.8145m -751.7487m -686.1088m  462.8145m -751.7487m
  vds      396.7242m  396.7242m -389.4713m -362.2774m  648.2513m -523.2002m
  vbs        0.         0.         0.         0.         0.         0.     
  vth      392.7581m  392.7581m -507.6958m -507.6952m  397.4192m -507.6958m
  vdsat     98.2194m   98.2194m -239.5111m -186.8554m   95.7427m -239.5123m
  vod       70.0563m   70.0563m -244.0529m -178.4136m   65.3953m -244.0528m
  beta      22.3278m   22.3278m  664.2230u  675.6368u    2.9633m  664.2227u
  gam eff  507.4460m  507.4460m  557.0846m  557.0846m  507.4460m  557.0846m
  gm         1.4688m    1.4688m  137.9802u  105.8127u  187.8890u  140.3699u
  gds       18.1111u   18.1111u    2.4203u    1.2978u    2.0652u    1.5757u
  gmb      300.8487u  300.8487u   41.7418u   31.5613u   38.2826u   42.4699u
  cdtot    104.9564f  104.9564f   10.6665f   10.6021f   13.7195f   10.0997f
  cgtot    474.4918f  474.4918f   42.1269f   41.9782f   62.6451f   42.0123f
  cstot    529.8841f  529.8841f   50.4895f   50.2957f   70.4735f   50.5183f
  cbtot    281.1076f  281.1076f   27.8340f   27.9744f   37.8265f   27.5127f
  cgs      405.3382f  405.3382f   36.1770f   35.9555f   53.2298f   36.1427f
  cgd       25.8442f   25.8442f    3.0329f    2.9783f    3.4271f    2.9225f



 subckt   xop        xop        xop        xop        xop       
 element  1:mm5      1:mm6      1:mm7      1:mm8      1:mm9     
 model    0:p_18.1   0:n_18.1   0:p_18.1   0:p_18.1   0:n_18.1  
 region     Saturati   Saturati   Saturati   Saturati   Saturati
  id        -2.0352u   11.2861u  -37.4661u  -37.4661u   28.2152u
  ibs      2.781e-22 -3.080e-21  7.685e-21  6.519e-21 -7.699e-21
  ibd      146.0078a -754.4024a  386.9928a  654.2334a   -1.8860f
  vgs     -552.3799m  462.8145m -800.9764m -748.5669m  462.8145m
  vds     -277.7762m  599.0236m -327.0132m -473.9632m  599.0236m
  vbs        0.         0.         0.         0.         0.     
  vth     -507.6945m  397.7926m -518.6054m -515.2392m  397.7926m
  vdsat    -92.3791m   95.5223m -279.2815m -235.2064m   95.5223m
  vod      -44.6854m   65.0219m -282.3710m -233.3277m   65.0219m
  beta     697.4313u    2.9634m  965.1642u    1.3480m    7.4084m
  gam eff  557.0847m  507.4460m  557.0846m  557.0846m  507.4460m
  gm        34.5298u  186.6272u  227.3705u  277.6949u  466.5680u
  gds      239.4991n    2.0745u   11.2992u    3.2497u    5.1864u
  gmb       10.1247u   38.0696u   69.0842u   83.4690u   95.1740u
  cdtot     10.6549f   13.8489f   18.9584f   22.1648f   34.6223f
  cgtot     36.5725f   62.6043f   63.2246f   86.3300f  156.5108f
  cstot     42.1539f   70.4170f   77.1787f  105.2016f  176.0426f
  cbtot     28.1220f   37.9514f   45.1871f   59.3450f   94.8784f
  cgs       28.9143f   53.1884f   53.6173f   73.8932f  132.9710f
  cgd        2.9075f    3.4290f    5.1101f    6.0680f    8.5725f



 ******
 psr+

 ****** ac analysis tnom=  25.000 temp=  25.000 ******
 psp_in_db= -24.4505 

          ***** job concluded
 ******  
 psr+

 ****** job statistics summary tnom=  25.000 temp=  25.000 ******
  
  
 ******  Machine Information  ******
 CPU:
 model name	: Intel(R) Xeon(R) CPU           E5530  @ 2.40GHz
 cpu MHz	: 1596.000
  
 OS:
 Linux version 2.6.18-274.17.1.el5 (mockbuild@builder10.centos.org) (gcc version 4.1.2 20080704 (Red Hat 4.1.2-51)) #1 SMP Tue Jan 10 17:25:58 EST 2012


  ******  HSPICE Threads Information  ******

  Command Line Threads Count :     1
  Available CPU Count        :    16
  Actual Threads Count       :     1


  ******  Circuit Statistics  ******
  # nodes       =     109 # elements   =      58
  # resistors   =       5 # capacitors =       6 # inductors   =       0
  # mutual_inds =       0 # vccs       =       0 # vcvs        =       0
  # cccs        =       0 # ccvs       =       0 # volt_srcs   =       5
  # curr_srcs   =       1 # diodes     =       0 # bjts        =       0
  # jfets       =       0 # mosfets    =      41 # U elements  =       0
  # T elements  =       0 # W elements =       0 # B elements  =       0
  # S elements  =       0 # P elements =       0 # va device   =       0
  # vector_srcs =       0 # N elements =       0


  ******  Runtime Statistics (seconds)  ******

  analysis           time    # points   tot. iter  conv.iter
  op point           0.07           1         234
  ac analysis        0.00          81          81
  readin             0.04
  errchk             0.01
  setup              0.00
  output             0.00


           peak memory used        202.45 megabytes
           total cpu time            0.12 seconds
           total elapsed time        0.89 seconds
           job started at     03:02:34 06/20/2017
           job ended   at     03:02:35 06/20/2017


  **info**  the obsolete option acout is ignored
  **info**  the obsolete option acout is ignored
  **warning** (13_psrp.sp:6) runlvl smaller than 5, reset to 5 when accurate turned on

 **warning**  runlvl smaller than 5, reset to 5 when accurate turned on
 ******  
 psr+

 ****** circuit name directory
 circuit number to circuit name directory
   number circuitname                     definition         multiplier
        0 main circuit
        1 xop.                            aicopamp           1.00 
 ***************************************************************************
 ***        model parameters  model name:   0:n_18.1   model type:nmos   ***
 ***************************************************************************

   *** general parameters ***
    deriv=   0.           

   ***  level 49  model parameters  ***

      hspver=    2006.03               level=         49         
     version=        3.2            paramchk=          0         
      apwarn=          1                lite=          0         
      vgslim=          0             binUnit=          1         
      capMod=          2               xpart=          1         
      mobMod=          1              nqsMod=          0         
      stiMod=          0                 elm=          5         
    sfvtflag=          0                 tox=   4.08e-09 meter   
          xj=    1.6e-07 meter       binflag=          0         
        lmin=    1.8e-07 meter          lmax=      5e-05 meter   
        wmin=    2.5e-07 meter          wmax=     0.0001 meter   
        lref=          0 meter          wref=          0 meter   
        lint=  1.587e-08 meter          wint=  1.022e-08 meter   
