Using: /usr/bin/time -p /usr/cad/synopsys/hspice/cur/hspice/linux/hspice hw2_4e.sp
 ****** HSPICE -- B-2008.09-SP1 32-BIT (Nov 24 2008) linux ******               
  Copyright (C) 2008 Synopsys, Inc. All Rights Reserved.                        
  Unpublished-rights reserved under US copyright laws.
  This program is protected by law and is subject to the 
  terms and conditions of the license agreement from Synopsys.
  Use of this program is your acceptance to be bound by the 
  license agreement. HSPICE is the trademark of Synopsys, Inc.
  Input File: hw2_4e.sp                                                         
 lic:  
 lic: FLEXlm: v8.5b 
 lic: USER:   u102061219           HOSTNAME: ws44 
 lic: HOSTID: e41f13bf3ba4         PID:      31792 
 lic: Using FLEXlm license file: 
 lic: 26585@lsnctu 
 lic: Checkout 1 hspice 
 lic: License/Maintenance for hspice will expire on 14-may-2016/2015.06 
 lic: FLOATING license(s) on SERVER lsnctu 
 lic:   
 Init: read install configuration file: /usr/cad/synopsys/hspice/cur/hspice/meta.cfg
 Init: hspice initialization file: /usr/cad/synopsys/hspice/cur/hspice/hspice.ini
 .option runlvl
 .option post

 ***** netlist *****

 m1 vx vin gnd gnd n_18 w=15.064u l=3u
 m2 vout vbias vx gnd n_18 w=23.385u l=1u m=3
 r1 vdd vout 20k

 ***** source *****
  
 vin vin gnd dc=0.35 ac=1
 vdd vdd gnd dc=1.8
 vbias vbias gnd dc=1
 i1 vdd vx dc=2u
 i2 vx gnd dc=40u

 ***** analysis *****

 .op
 .ac lin 10000 10 100meg
 .tf v(vout) vin
 .probe ac v(vout)

 .end
 

 
      
1****** HSPICE -- B-2008.09-SP1 32-BIT (Nov 24 2008) linux ******               
 ******  
 

  ******  operating point information tnom=  25.000 temp=  25.000 *****
 ***** operating point status is all       simulation time is     0.     
    node    =voltage      node    =voltage      node    =voltage

 +0:vbias   =   1.0000  0:vdd     =   1.8000  0:vin     = 350.0000m
 +0:vout    =   1.0000  0:vx      = 500.0055m


 ****  voltage sources

 subckt                                   
 element  0:vin      0:vdd      0:vbias   
  volts    350.0000m    1.8000     1.0000 
  current    0.       -42.0000u    0.     
  power      0.        75.6000u    0.     

     total voltage source power dissipation=   75.6000u       watts



 ***** current sources

 subckt                        
 element  0:i1       0:i2      
  volts      1.3000   500.0055m
  current    2.0000u   40.0000u
  power     -2.6000u  -20.0002u


     total current source power dissipation= -22.6002u       watts

 **** resistors

 subckt             
 element  0:r1      
  r value   20.0000k
  v drop   799.9996m
  current   40.0000u
  power     32.0000u



 **** mosfets


 subckt                        
 element  0:m1       0:m2      
 model    0:n_18.1   0:n_18.1  
 region     Saturati   Saturati
  id         2.0000u   40.0000u
  ibs     -3.135e-22   -2.5829f
  ibd     -567.5625a   -5.1657f
  vgs      350.0000m  499.9945m
  vds      500.0055m  499.9949m
  vbs        0.      -500.0055m
  vth      335.9234m  477.4303m
  vdsat     64.5248m   76.8386m
  vod       14.0766m   22.5642m
  beta       1.5082m   22.0242m
  gam eff  507.4459m  519.9007m
  gm        41.9192u  805.4167u
  gds      272.8934n   10.6666u
  gmb        8.7076u  127.3955u
  cdtot     20.7956f   88.7017f
  cgtot    220.6113f  377.6703f
  cstot    207.9612f  389.2384f
  cbtot    109.4444f  222.1454f
  cgs      171.5127f  301.7104f
  cgd        5.3351f   25.0361f







 ****     small-signal transfer characteristics

      v(vout)/vin                              = -838.0849m
      input resistance at             vin      =  1.000e+20
      output resistance at v(vout)             =   19.9988k




          ***** job concluded
1****** HSPICE -- B-2008.09-SP1 32-BIT (Nov 24 2008) linux ******               
 ******  
 

  ******  job statistics summary tnom=  25.000 temp=  25.000 *****

  ******  HSPICE Threads Information  ******
  Command Line Threads Count:                      0
  Available CPU Count:                             8
  Actual Model Evaluation(Load) Threads Count:     1
  Actual Solver Threads Count:                     1


  ******  Circuit Statistics  ******
  # nodes       =      10  # elements   =       8
  # resistors   =       1  # capacitors =       0  # inductors   =       0
  # mutual_inds =       0  # vccs       =       0  # vcvs        =       0
  # cccs        =       0  # ccvs       =       0  # volt_srcs   =       3
  # curr_srcs   =       2  # diodes     =       0  # bjts        =       0
  # jfets       =       0  # mosfets    =       2  # U elements  =       0
  # T elements  =       0  # W elements =       0  # B elements  =       0
  # S elements  =       0  # P elements =       0  # va device   =       0


  ******  Runtime Statistics (seconds)  ******

  analysis           time    # points   tot. iter  conv.iter
  op point           0.00           1           6
  ac analysis        0.04       10000       10000
  readin             0.02
  errchk             0.01
  setup              0.00
  output             0.00


           total memory used          352  kbytes
           total cpu time            0.07 seconds
           total elapsed time        0.25 seconds
           job started at     20:24:37 04/13/2016
           job ended   at     20:24:37 04/13/2016


 Init: hspice initialization file: /usr/cad/synopsys/hspice/cur/hspice/hspice.ini
 lic: Release hspice token(s) 
