Using: /usr/bin/time -p /usr/cad/synopsys/hspice/cur/hspice/linux/hspice hw2_4c.sp
 ****** HSPICE -- B-2008.09-SP1 32-BIT (Nov 24 2008) linux ******               
  Copyright (C) 2008 Synopsys, Inc. All Rights Reserved.                        
  Unpublished-rights reserved under US copyright laws.
  This program is protected by law and is subject to the 
  terms and conditions of the license agreement from Synopsys.
  Use of this program is your acceptance to be bound by the 
  license agreement. HSPICE is the trademark of Synopsys, Inc.
  Input File: hw2_4c.sp                                                         
 lic:  
 lic: FLEXlm: v8.5b 
 lic: USER:   u102061219           HOSTNAME: ws44 
 lic: HOSTID: e41f13bf3ba4         PID:      23335 
 lic: Using FLEXlm license file: 
 lic: 26585@lscic 
 lic: Checkout 1 hspice 
 lic: License/Maintenance for hspice will expire on 14-may-2016/2015.06 
 lic: FLOATING license(s) on SERVER lscic 
 lic:   
 Init: read install configuration file: /usr/cad/synopsys/hspice/cur/hspice/meta.cfg
 Init: hspice initialization file: /usr/cad/synopsys/hspice/cur/hspice/hspice.ini
 .option runlvl
 .option post

 ***** netlist *****

 m1 vout vbias vin gnd n_18 w=23.385u l=1u m=3
 r1 vdd vout 20k

 ***** source *****
  
 vin vin gnd dc=0.5 ac=1
 vdd vdd gnd dc=1.8
 vbias vbias gnd dc=1

 ***** analysis *****

 .op
 .ac lin 10000 10 100meg
 .tf v(vout) vin
 .probe ac v(vout)

 .end
 

 
      
1****** HSPICE -- B-2008.09-SP1 32-BIT (Nov 24 2008) linux ******               
 ******  
 

  ******  operating point information tnom=  25.000 temp=  25.000 *****
 ***** operating point status is all       simulation time is     0.     
    node    =voltage      node    =voltage      node    =voltage

 +0:vbias   =   1.0000  0:vdd     =   1.8000  0:vin     = 500.0000m
 +0:vout    = 999.9152m


 ****  voltage sources

 subckt                                   
 element  0:vin      0:vdd      0:vbias   
  volts    500.0000m    1.8000     1.0000 
  current   40.0042u  -40.0042u    0.     
  power    -20.0021u   72.0076u    0.     

     total voltage source power dissipation=   52.0055u       watts



 **** resistors

 subckt             
 element  0:r1      
  r value   20.0000k
  v drop   800.0848m
  current   40.0042u
  power     32.0068u



 **** mosfets


 subckt             
 element  0:m1      
 model    0:n_18.1  
 region     Saturati
  id        40.0042u
  ibs       -2.5829f
  ibd       -5.1653f
  vgs      500.0000m
  vds      499.9152m
  vbs     -500.0000m
  vth      477.4302m
  vdsat     76.8414m
  vod       22.5698m
  beta      22.0242m
  gam eff  519.9006m
  gm       805.4855u
  gds       10.6678u
  gmb      127.4068u
  cdtot     88.7028f
  cgtot    377.6853f
  cstot    389.2572f
  cbtot    222.1468f
  cgs      301.7281f
  cgd       25.0360f







 ****     small-signal transfer characteristics

      v(vout)/vin                              =   15.5525 
      input resistance at             vin      =    1.2860k
      output resistance at v(vout)             =   16.4833k




          ***** job concluded
1****** HSPICE -- B-2008.09-SP1 32-BIT (Nov 24 2008) linux ******               
 ******  
 

  ******  job statistics summary tnom=  25.000 temp=  25.000 *****

  ******  HSPICE Threads Information  ******
  Command Line Threads Count:                      0
  Available CPU Count:                             8
  Actual Model Evaluation(Load) Threads Count:     1
  Actual Solver Threads Count:                     1


  ******  Circuit Statistics  ******
  # nodes       =       7  # elements   =       5
  # resistors   =       1  # capacitors =       0  # inductors   =       0
  # mutual_inds =       0  # vccs       =       0  # vcvs        =       0
  # cccs        =       0  # ccvs       =       0  # volt_srcs   =       3
  # curr_srcs   =       0  # diodes     =       0  # bjts        =       0
  # jfets       =       0  # mosfets    =       1  # U elements  =       0
  # T elements  =       0  # W elements =       0  # B elements  =       0
  # S elements  =       0  # P elements =       0  # va device   =       0


  ******  Runtime Statistics (seconds)  ******

  analysis           time    # points   tot. iter  conv.iter
  op point           0.00           1           5
  ac analysis        0.04       10000       10000
  readin             0.03
  errchk             0.00
  setup              0.00
  output             0.00


           total memory used          350  kbytes
           total cpu time            0.07 seconds
           total elapsed time        0.40 seconds
           job started at     16:53:42 04/13/2016
           job ended   at     16:53:42 04/13/2016


 Init: hspice initialization file: /usr/cad/synopsys/hspice/cur/hspice/hspice.ini
 lic: Release hspice token(s) 
