Using: /usr/bin/time -p /usr/cad/synopsys/hspice/cur/hspice/linux/hspice 1b.sp
 ****** HSPICE -- B-2008.09-SP1 32-BIT (Nov 24 2008) linux ******               
  Copyright (C) 2008 Synopsys, Inc. All Rights Reserved.                        
  Unpublished-rights reserved under US copyright laws.
  This program is protected by law and is subject to the 
  terms and conditions of the license agreement from Synopsys.
  Use of this program is your acceptance to be bound by the 
  license agreement. HSPICE is the trademark of Synopsys, Inc.
  Input File: 1b.sp                                                             
 lic:  
 lic: FLEXlm: v8.5b 
 lic: USER:   u102061112           HOSTNAME: ws36 
 lic: HOSTID: e41f1366b708         PID:      2005 
 lic: Using FLEXlm license file: 
 lic: 26585@lsnctu 
 lic: Checkout 1 hspice 
 lic: License/Maintenance for hspice will expire on 14-may-2016/2015.06 
 lic: FLOATING license(s) on SERVER lsnctu 
 lic:   
 Init: read install configuration file: /usr/cad/synopsys/hspice/cur/hspice/meta.cfg
 Init: hspice initialization file: /usr/cad/synopsys/hspice/cur/hspice/hspice.ini
 .option runlvl
 .option post=1 acct captab acout=0


 m3 vp vb gnd gnd n_18 w=10u l=0.5u m=1
 m2 vout+ vin- vp gnd n_18 w=92.4u l=2.8u m=1
 m1 vout- vin+ vp gnd n_18 w=84u l=2.8u m=1


 r1 vdd vout- 100k 
 r0 vdd vout+ 100k 

 ******source******

 vdd vdd 0 dc=1.8
 vin+ vin+ 0 dc 0.9 ac=1
 vin- vin- 0 dc 0.9 ac=1
 vb vb 0 dc=0.49

 ****acm with cp
 *.alter  
 *cp vp 0 100f
 *vin+ vin+ 0 dc 0.9 ac=1
 *vin- vin- 0 dc 0.9 ac=1

 ******analysis******
 .op
 .ac dec 100 1 1g
 .probe vdb(vout+,vout-)
 .print vdb(vout+,vout-)


 *****adm without cp
 .alter
 

 
      
1****** HSPICE -- B-2008.09-SP1 32-BIT (Nov 24 2008) linux ******               
 ******  
 *3.1 without cp

  ******  operating point information tnom=  25.000 temp=  25.000 *****
 ***** operating point status is all       simulation time is     0.     
    node    =voltage      node    =voltage      node    =voltage

 +0:vb      = 490.0000m 0:vdd     =   1.8000  0:vin+    = 900.0000m
 +0:vin-    = 900.0000m 0:vout+   = 756.5263m 0:vout-   = 836.8283m
 +0:vp      = 471.6036m


 maximum nodal capacitance=   1.841E-12         on node     0:vp              

    nodal  capacitance table 

    node    =    cap      node    =    cap      node    =    cap

 +0:vb      =  33.3816f 0:vdd     =   0.      0:vin+    = 978.9792f
 +0:vin-    =   1.0721p 0:vout+   = 121.8681f 0:vout-   = 108.8999f
 +0:vp      =   1.8413p

 

 ****  voltage sources

 subckt                                              
 element  0:vdd      0:vin+     0:vin-     0:vb      
  volts      1.8000   900.0000m  900.0000m  490.0000m
  current  -20.0665u    0.         0.         0.     
  power     36.1196u    0.         0.         0.     

     total voltage source power dissipation=   36.1196u       watts



 **** resistors

 subckt                        
 element  0:r1       0:r0      
  r value  100.0000k  100.0000k
  v drop   963.1717m    1.0435 
  current    9.6317u   10.4347u
  power      9.2770u   10.8884u



 **** mosfets


 subckt                                   
 element  0:m3       0:m2       0:m1      
 model    0:n_18.1   0:n_18.1   0:n_18.1  
 region     Saturati   Saturati   Saturati
  id        20.0665u   10.4347u    9.6317u
  ibs     -3.247e-21   -3.1073f   -2.8280f
  ibd     -366.9043a   -4.9846f   -5.0180f
  vgs      490.0000m  428.3964m  428.3964m
  vds      471.6036m  284.9227m  365.2247m
  vbs        0.      -471.6036m -471.6036m
  vth      443.4287m  427.1945m  426.7406m
  vdsat     92.6322m   62.9459m   63.1123m
  vod       46.5713m    1.2019m    1.6559m
  beta       6.4796m   10.0680m    9.1524m
  gam eff  507.4460m  519.2609m  519.2609m
  gm       352.2155u  231.1341u  212.9797u
  gds        5.8065u    2.1281u    1.8651u
  gmb       68.7356u   38.3990u   35.3127u
  cdtot     13.9021f  121.8681f  108.8999f
  cgtot     33.3816f    1.0721p  978.9792f
  cstot     40.2661f  953.6858f  873.7306f
  cbtot     29.4620f  534.9502f  484.9210f
  cgs       26.2044f  802.1354f  734.3510f
  cgd        3.6522f   32.5123f   29.3132f



 ******  
 *3.1 without cp

  ******  ac analysis tnom=  25.000 temp=  25.000 *****
x

        freq    volt db    
                   vout+   
                   vout-   
    1.00000     -52.1064   
    1.02329     -52.1064   
    1.04713     -52.1064   
    1.07152     -52.1064   
    1.09648     -52.1064   
    1.12202     -52.1064   
    1.14815     -52.1064   
    1.17490     -52.1064   
    1.20226     -52.1064   
    1.23027     -52.1064   
    1.25893     -52.1064   
    1.28825     -52.1064   
    1.31826     -52.1064   
    1.34896     -52.1064   
    1.38038     -52.1064   
    1.41254     -52.1064   
    1.44544     -52.1064   
    1.47911     -52.1064   
    1.51356     -52.1064   
    1.54882     -52.1064   
    1.58489     -52.1064   
    1.62181     -52.1064   
    1.65959     -52.1064   
    1.69824     -52.1064   
    1.73780     -52.1064   
    1.77828     -52.1064   
    1.81970     -52.1064   
    1.86209     -52.1064   
    1.90546     -52.1064   
    1.94984     -52.1064   
    1.99526     -52.1064   
    2.04174     -52.1064   
    2.08930     -52.1064   
    2.13796     -52.1064   
    2.18776     -52.1064   
    2.23872     -52.1064   
    2.29087     -52.1064   
    2.34423     -52.1064   
    2.39883     -52.1064   
    2.45471     -52.1064   
    2.51189     -52.1064   
    2.57040     -52.1064   
    2.63027     -52.1064   
    2.69153     -52.1064   
    2.75423     -52.1064   
    2.81838     -52.1064   
    2.88403     -52.1064   
    2.95121     -52.1064   
    3.01995     -52.1064   
    3.09030     -52.1064   
    3.16228     -52.1064   
    3.23594     -52.1064   
    3.31131     -52.1064   
    3.38844     -52.1064   
    3.46737     -52.1064   
    3.54813     -52.1064   
    3.63078     -52.1064   
    3.71535     -52.1064   
    3.80189     -52.1064   
    3.89045     -52.1064   
    3.98107     -52.1064   
    4.07380     -52.1064   
    4.16869     -52.1064   
    4.26580     -52.1064   
    4.36516     -52.1064   
    4.46684     -52.1064   
    4.57088     -52.1064   
    4.67735     -52.1064   
    4.78630     -52.1064   
    4.89779     -52.1064   
    5.01187     -52.1064   
    5.12861     -52.1064   
    5.24807     -52.1064   
    5.37032     -52.1064   
    5.49541     -52.1064   
    5.62341     -52.1064   
    5.75440     -52.1064   
    5.88844     -52.1064   
    6.02560     -52.1064   
    6.16595     -52.1064   
    6.30957     -52.1064   
    6.45654     -52.1064   
    6.60693     -52.1064   
    6.76083     -52.1064   
    6.91831     -52.1064   
    7.07946     -52.1064   
    7.24436     -52.1064   
    7.41310     -52.1064   
    7.58578     -52.1064   
    7.76247     -52.1064   
    7.94328     -52.1064   
    8.12831     -52.1064   
    8.31764     -52.1064   
    8.51138     -52.1064   
    8.70964     -52.1064   
    8.91251     -52.1064   
    9.12011     -52.1064   
    9.33254     -52.1064   
    9.54993     -52.1064   
    9.77237     -52.1064   
   10.00000     -52.1064   
   10.23293     -52.1064   
   10.47129     -52.1064   
   10.71519     -52.1064   
   10.96478     -52.1064   
   11.22018     -52.1064   
   11.48154     -52.1064   
   11.74898     -52.1064   
   12.02264     -52.1064   
   12.30269     -52.1064   
   12.58925     -52.1064   
   12.88250     -52.1064   
   13.18257     -52.1064   
   13.48963     -52.1064   
   13.80384     -52.1064   
   14.12538     -52.1064   
   14.45440     -52.1064   
   14.79108     -52.1064   
   15.13561     -52.1064   
   15.48817     -52.1064   
   15.84893     -52.1064   
   16.21810     -52.1064   
   16.59587     -52.1064   
   16.98244     -52.1064   
   17.37801     -52.1064   
   17.78279     -52.1064   
   18.19701     -52.1064   
   18.62087     -52.1064   
   19.05461     -52.1064   
   19.49845     -52.1064   
   19.95262     -52.1064   
   20.41738     -52.1064   
   20.89296     -52.1064   
   21.37962     -52.1064   
   21.87762     -52.1064   
   22.38721     -52.1064   
   22.90868     -52.1064   
   23.44229     -52.1064   
   23.98833     -52.1064   
   24.54709     -52.1064   
   25.11886     -52.1064   
   25.70396     -52.1064   
   26.30268     -52.1064   
   26.91535     -52.1064   
   27.54229     -52.1064   
   28.18383     -52.1064   
   28.84032     -52.1064   
   29.51209     -52.1064   
   30.19952     -52.1064   
   30.90295     -52.1064   
   31.62278     -52.1064   
   32.35937     -52.1064   
   33.11311     -52.1064   
   33.88442     -52.1064   
   34.67369     -52.1064   
   35.48134     -52.1064   
   36.30781     -52.1064   
   37.15352     -52.1064   
   38.01894     -52.1064   
   38.90451     -52.1064   
   39.81072     -52.1064   
   40.73803     -52.1064   
   41.68694     -52.1064   
   42.65795     -52.1064   
   43.65158     -52.1064   
   44.66836     -52.1064   
   45.70882     -52.1064   
   46.77351     -52.1064   
   47.86301     -52.1064   
   48.97788     -52.1064   
   50.11872     -52.1064   
   51.28614     -52.1064   
   52.48075     -52.1064   
   53.70318     -52.1064   
   54.95409     -52.1064   
   56.23413     -52.1064   
   57.54399     -52.1064   
   58.88437     -52.1064   
   60.25596     -52.1064   
   61.65950     -52.1064   
   63.09573     -52.1064   
   64.56542     -52.1064   
   66.06934     -52.1064   
   67.60830     -52.1064   
   69.18310     -52.1064   
   70.79458     -52.1064   
   72.44360     -52.1064   
   74.13102     -52.1064   
   75.85776     -52.1064   
   77.62471     -52.1064   
   79.43282     -52.1064   
   81.28305     -52.1064   
   83.17638     -52.1064   
   85.11380     -52.1064   
   87.09636     -52.1064   
   89.12509     -52.1064   
   91.20108     -52.1064   
   93.32543     -52.1064   
   95.49926     -52.1064   
   97.72372     -52.1064   
  100.00000     -52.1064   
  102.32930     -52.1064   
  104.71285     -52.1064   
  107.15193     -52.1064   
  109.64782     -52.1064   
  112.20185     -52.1064   
  114.81536     -52.1064   
  117.48976     -52.1064   
  120.22644     -52.1064   
  123.02688     -52.1064   
  125.89254     -52.1064   
  128.82496     -52.1064   
  131.82567     -52.1064   
  134.89629     -52.1064   
  138.03843     -52.1064   
  141.25375     -52.1064   
  144.54398     -52.1064   
  147.91084     -52.1064   
  151.35612     -52.1064   
  154.88166     -52.1064   
  158.48932     -52.1064   
  162.18101     -52.1064   
  165.95869     -52.1064   
  169.82437     -52.1064   
  173.78008     -52.1064   
  177.82794     -52.1064   
  181.97009     -52.1064   
  186.20871     -52.1064   
  190.54607     -52.1064   
  194.98446     -52.1064   
  199.52623     -52.1064   
  204.17379     -52.1064   
  208.92961     -52.1064   
  213.79621     -52.1064   
  218.77616     -52.1064   
  223.87211     -52.1064   
  229.08677     -52.1064   
  234.42288     -52.1064   
  239.88329     -52.1064   
  245.47089     -52.1064   
  251.18864     -52.1064   
  257.03958     -52.1064   
  263.02680     -52.1064   
  269.15348     -52.1064   
  275.42287     -52.1064   
  281.83829     -52.1064   
  288.40315     -52.1064   
  295.12092     -52.1064   
  301.99517     -52.1064   
  309.02954     -52.1064   
  316.22777     -52.1064   
  323.59366     -52.1064   
  331.13112     -52.1064   
  338.84416     -52.1064   
  346.73685     -52.1064   
  354.81339     -52.1064   
  363.07805     -52.1064   
  371.53523     -52.1064   
  380.18940     -52.1064   
  389.04514     -52.1064   
  398.10717     -52.1064   
  407.38028     -52.1064   
  416.86938     -52.1064   
  426.57952     -52.1064   
  436.51583     -52.1064   
  446.68359     -52.1064   
  457.08819     -52.1064   
  467.73514     -52.1064   
  478.63009     -52.1064   
  489.77882     -52.1064   
  501.18723     -52.1064   
  512.86138     -52.1064   
  524.80746     -52.1064   
  537.03180     -52.1064   
  549.54087     -52.1064   
  562.34133     -52.1064   
  575.43994     -52.1064   
  588.84366     -52.1064   
  602.55959     -52.1064   
  616.59500     -52.1064   
  630.95734     -52.1064   
  645.65423     -52.1064   
  660.69345     -52.1064   
  676.08298     -52.1064   
  691.83097     -52.1064   
  707.94578     -52.1064   
  724.43596     -52.1064   
  741.31024     -52.1064   
  758.57758     -52.1064   
  776.24712     -52.1064   
  794.32823     -52.1064   
  812.83052     -52.1064   
  831.76377     -52.1064   
  851.13804     -52.1064   
  870.96359     -52.1064   
  891.25094     -52.1064   
  912.01084     -52.1064   
  933.25430     -52.1064   
  954.99259     -52.1064   
  977.23722     -52.1064   
    1.00000k    -52.1064   
    1.02329k    -52.1064   
    1.04713k    -52.1064   
    1.07152k    -52.1064   
    1.09648k    -52.1064   
    1.12202k    -52.1064   
    1.14815k    -52.1064   
    1.17490k    -52.1064   
    1.20226k    -52.1064   
    1.23027k    -52.1064   
    1.25893k    -52.1064   
    1.28825k    -52.1064   
    1.31826k    -52.1064   
    1.34896k    -52.1064   
    1.38038k    -52.1064   
    1.41254k    -52.1064   
    1.44544k    -52.1064   
    1.47911k    -52.1064   
    1.51356k    -52.1064   
    1.54882k    -52.1064   
    1.58489k    -52.1064   
    1.62181k    -52.1064   
    1.65959k    -52.1064   
    1.69824k    -52.1064   
    1.73780k    -52.1064   
    1.77828k    -52.1064   
    1.81970k    -52.1064   
    1.86209k    -52.1064   
    1.90546k    -52.1064   
    1.94984k    -52.1064   
    1.99526k    -52.1064   
    2.04174k    -52.1064   
    2.08930k    -52.1064   
    2.13796k    -52.1064   
    2.18776k    -52.1064   
    2.23872k    -52.1064   
    2.29087k    -52.1064   
    2.34423k    -52.1064   
    2.39883k    -52.1064   
    2.45471k    -52.1064   
    2.51189k    -52.1064   
    2.57040k    -52.1064   
    2.63027k    -52.1064   
    2.69153k    -52.1063   
    2.75423k    -52.1063   
    2.81838k    -52.1063   
    2.88403k    -52.1063   
    2.95121k    -52.1063   
    3.01995k    -52.1063   
    3.09030k    -52.1063   
    3.16228k    -52.1063   
    3.23594k    -52.1063   
    3.31131k    -52.1064   
    3.38844k    -52.1064   
    3.46737k    -52.1064   
    3.54813k    -52.1064   
    3.63078k    -52.1064   
    3.71535k    -52.1064   
    3.80189k    -52.1064   
    3.89045k    -52.1064   
    3.98107k    -52.1064   
    4.07380k    -52.1064   
    4.16869k    -52.1064   
    4.26580k    -52.1064   
    4.36516k    -52.1064   
    4.46684k    -52.1064   
    4.57088k    -52.1064   
    4.67735k    -52.1063   
    4.78630k    -52.1063   
    4.89779k    -52.1063   
    5.01187k    -52.1064   
    5.12861k    -52.1064   
    5.24807k    -52.1064   
    5.37032k    -52.1064   
    5.49541k    -52.1064   
    5.62341k    -52.1064   
    5.75440k    -52.1064   
    5.88844k    -52.1063   
    6.02560k    -52.1063   
    6.16595k    -52.1063   
    6.30957k    -52.1063   
    6.45654k    -52.1063   
    6.60693k    -52.1063   
    6.76083k    -52.1063   
    6.91831k    -52.1063   
    7.07946k    -52.1063   
    7.24436k    -52.1063   
    7.41310k    -52.1063   
    7.58578k    -52.1063   
    7.76247k    -52.1063   
    7.94328k    -52.1063   
    8.12831k    -52.1063   
    8.31764k    -52.1063   
    8.51138k    -52.1063   
    8.70964k    -52.1063   
    8.91251k    -52.1063   
    9.12011k    -52.1063   
    9.33254k    -52.1063   
    9.54993k    -52.1063   
    9.77237k    -52.1063   
   10.00000k    -52.1063   
   10.23293k    -52.1063   
   10.47129k    -52.1063   
   10.71519k    -52.1063   
   10.96478k    -52.1062   
   11.22018k    -52.1063   
   11.48154k    -52.1062   
   11.74898k    -52.1063   
   12.02264k    -52.1062   
   12.30269k    -52.1063   
   12.58925k    -52.1062   
   12.88250k    -52.1063   
   13.18257k    -52.1062   
   13.48963k    -52.1063   
   13.80384k    -52.1062   
   14.12538k    -52.1062   
   14.45440k    -52.1062   
   14.79108k    -52.1062   
   15.13561k    -52.1062   
   15.48817k    -52.1062   
   15.84893k    -52.1062   
   16.21810k    -52.1062   
   16.59587k    -52.1062   
   16.98244k    -52.1061   
   17.37801k    -52.1061   
   17.78279k    -52.1061   
   18.19701k    -52.1062   
   18.62087k    -52.1062   
   19.05461k    -52.1062   
   19.49845k    -52.1061   
   19.95262k    -52.1061   
   20.41738k    -52.1061   
   20.89296k    -52.1061   
   21.37962k    -52.1061   
   21.87762k    -52.1060   
   22.38721k    -52.1060   
   22.90868k    -52.1060   
   23.44229k    -52.1060   
   23.98833k    -52.1060   
   24.54709k    -52.1060   
   25.11886k    -52.1059   
   25.70396k    -52.1059   
   26.30268k    -52.1060   
   26.91535k    -52.1059   
   27.54229k    -52.1059   
   28.18383k    -52.1058   
   28.84032k    -52.1058   
   29.51209k    -52.1057   
   30.19952k    -52.1057   
   30.90295k    -52.1057   
   31.62278k    -52.1057   
   32.35937k    -52.1057   
   33.11311k    -52.1057   
   33.88442k    -52.1056   
   34.67369k    -52.1055   
   35.48134k    -52.1055   
   36.30781k    -52.1055   
   37.15352k    -52.1054   
   38.01894k    -52.1054   
   38.90451k    -52.1054   
   39.81072k    -52.1053   
   40.73803k    -52.1053   
   41.68694k    -52.1052   
   42.65795k    -52.1052   
   43.65158k    -52.1051   
   44.66836k    -52.1050   
   45.70882k    -52.1050   
   46.77351k    -52.1049   
   47.86301k    -52.1049   
   48.97788k    -52.1047   
   50.11872k    -52.1047   
   51.28614k    -52.1046   
   52.48075k    -52.1045   
   53.70318k    -52.1045   
   54.95409k    -52.1044   
   56.23413k    -52.1042   
   57.54399k    -52.1041   
   58.88437k    -52.1040   
   60.25596k    -52.1039   
   61.65950k    -52.1038   
   63.09573k    -52.1037   
   64.56542k    -52.1036   
   66.06934k    -52.1035   
   67.60830k    -52.1033   
   69.18310k    -52.1032   
   70.79458k    -52.1030   
   72.44360k    -52.1029   
   74.13102k    -52.1027   
   75.85776k    -52.1025   
   77.62471k    -52.1024   
   79.43282k    -52.1022   
   81.28305k    -52.1020   
   83.17638k    -52.1018   
   85.11380k    -52.1015   
   87.09636k    -52.1014   
   89.12509k    -52.1011   
   91.20108k    -52.1009   
   93.32543k    -52.1006   
   95.49926k    -52.1003   
   97.72372k    -52.1000   
  100.00000k    -52.0997   
  102.32930k    -52.0994   
  104.71285k    -52.0991   
  107.15193k    -52.0987   
  109.64782k    -52.0984   
  112.20185k    -52.0980   
  114.81536k    -52.0976   
  117.48976k    -52.0972   
  120.22644k    -52.0968   
  123.02688k    -52.0963   
  125.89254k    -52.0959   
  128.82496k    -52.0953   
  131.82567k    -52.0949   
  134.89629k    -52.0943   
  138.03843k    -52.0937   
  141.25375k    -52.0931   
  144.54398k    -52.0926   
  147.91084k    -52.0919   
  151.35612k    -52.0912   
  154.88166k    -52.0905   
  158.48932k    -52.0897   
  162.18101k    -52.0889   
  165.95869k    -52.0881   
  169.82437k    -52.0873   
  173.78008k    -52.0864   
  177.82794k    -52.0854   
  181.97009k    -52.0844   
  186.20871k    -52.0834   
  190.54607k    -52.0823   
  194.98446k    -52.0812   
  199.52623k    -52.0800   
  204.17379k    -52.0788   
  208.92961k    -52.0775   
  213.79621k    -52.0762   
  218.77616k    -52.0748   
  223.87211k    -52.0732   
  229.08677k    -52.0717   
  234.42288k    -52.0701   
  239.88329k    -52.0683   
  245.47089k    -52.0665   
  251.18864k    -52.0647   
  257.03958k    -52.0627   
  263.02680k    -52.0607   
  269.15348k    -52.0586   
  275.42287k    -52.0563   
  281.83829k    -52.0540   
  288.40315k    -52.0515   
  295.12092k    -52.0490   
  301.99517k    -52.0463   
  309.02954k    -52.0434   
  316.22777k    -52.0405   
  323.59366k    -52.0374   
  331.13112k    -52.0342   
  338.84416k    -52.0308   
  346.73685k    -52.0273   
  354.81339k    -52.0235   
  363.07805k    -52.0197   
  371.53523k    -52.0157   
  380.18940k    -52.0114   
  389.04514k    -52.0070   
