Using: /usr/bin/time -p /usr/cad/synopsys/hspice/cur/hspice/linux/hspice 1d.sp
 ****** HSPICE -- B-2008.09-SP1 32-BIT (Nov 24 2008) linux ******               
  Copyright (C) 2008 Synopsys, Inc. All Rights Reserved.                        
  Unpublished-rights reserved under US copyright laws.
  This program is protected by law and is subject to the 
  terms and conditions of the license agreement from Synopsys.
  Use of this program is your acceptance to be bound by the 
  license agreement. HSPICE is the trademark of Synopsys, Inc.
  Input File: 1d.sp                                                             
 lic:  
 lic: FLEXlm: v8.5b 
 lic: USER:   u102061112           HOSTNAME: ws36 
 lic: HOSTID: e41f1366b708         PID:      32689 
 lic: Using FLEXlm license file: 
 lic: 26585@lsnctu 
 lic: Checkout 1 hspice 
 lic: License/Maintenance for hspice will expire on 14-may-2016/2015.06 
 lic: FLOATING license(s) on SERVER lsnctu 
 lic:   
 Init: read install configuration file: /usr/cad/synopsys/hspice/cur/hspice/meta.cfg
 Init: hspice initialization file: /usr/cad/synopsys/hspice/cur/hspice/hspice.ini
 .option runlvl
 .option post=1 acct captab acout=0
 .param d=0

 m3 vp vb gnd gnd n_18 w=10u l=0.5u m=1
 m2 vout+ vin- vp gnd n_18 w=84u l=2.8u m=1
 m1 vout- vin+ vp gnd n_18 w=84u l=2.8u m=1

 r1 vdd vout- 100k 
 r0 vdd vout+ 100k 

 ******source******

 vdd vdd 0 dc=1.8
 vin+ vin+ 0 dc='1.8-d' ac 0.5 0
 vin- vin- 0 dc=d ac 0.5 180
 vb vb 0 dc=0.49

 ******analysis******
 .op
 .ac dec 100 1 1g sweep d 0.8435 0.9565 1m
 .probe vdb(vout+,vout-)
 .print vdb(vout+,vout-)

 .end
 

 
      
1****** HSPICE -- B-2008.09-SP1 32-BIT (Nov 24 2008) linux ******               
 ******  
 *3.1

  ******  operating point information tnom=  25.000 temp=  25.000 *****
 ***** operating point status is all       simulation time is     0.     
    node    =voltage      node    =voltage      node    =voltage

 +0:vb      = 490.0000m 0:vdd     =   1.8000  0:vin+    =   1.8000 
 +0:vin-    =   0.      0:vout+   =   1.8000  0:vout-   = 114.6760m
 +0:vp      = 113.0864m


 maximum nodal capacitance=   2.280E-12         on node     0:vout-           

    nodal  capacitance table 

    node    =    cap      node    =    cap      node    =    cap

 +0:vb      =  33.2970f 0:vdd     =   0.      0:vin+    =   1.9434p
 +0:vin-    = 511.1943f 0:vout+   =  96.5138f 0:vout-   =   2.2804p
 +0:vp      =   2.1198p

 

 ****  voltage sources

 subckt                                              
 element  0:vdd      0:vin+     0:vin-     0:vb      
  volts      1.8000     1.8000     0.       490.0000m
  current  -16.8532u    0.         0.         0.     
  power     30.3358u    0.         0.         0.     

     total voltage source power dissipation=   30.3358u       watts



 **** resistors

 subckt                        
 element  0:r1       0:r0      
  r value  100.0000k  100.0000k
  v drop     1.6853   516.6349n
  current   16.8532u    5.1663p
  power     28.4032u    2.6691a



 **** mosfets


 subckt                                   
 element  0:m3       0:m2       0:m1      
 model    0:n_18.1   0:n_18.1   0:n_18.1  
 region     Saturati     Cutoff     Linear
  id        16.8532u    1.6497p   16.8532u
  ibs     -2.727e-21 -678.1203a -678.1228a
  ibd      -87.9785a  -10.7937f -687.6500a
  vgs      490.0000m -113.0864m    1.6869 
  vds      113.0864m    1.6869     1.5896m
  vbs        0.      -113.0864m -113.0864m
  vth      448.0679m  354.8562m  362.5189m
  vdsat     90.0651m   37.0562m    1.1240 
  vod       41.9321m -467.9426m    1.3244 
  beta       6.4801m    9.0330m    8.0924m
  gam eff  507.4460m  510.5209m  510.5209m
  gm       290.8952u   61.7697p    9.1115u
  gds       28.9227u  377.5916f   10.5994m
  gmb       57.3741u   14.2110p    3.0014u
  cdtot     15.9195f   96.5138f    2.2804p
  cgtot     33.2970f  511.1943f    1.9434p
  cstot     39.4218f  126.4204f    1.9774p
  cbtot     30.7849f  603.6448f  610.6386f
  cgs       25.8343f   32.6320f  959.3459f
  cgd        3.9551f   32.6172f  940.5649f



1****** HSPICE -- B-2008.09-SP1 32-BIT (Nov 24 2008) linux ******               
 ******  
 *3.1

  ******  ac analysis tnom=  25.000 temp=  25.000 *****
 ***** operating point status is all       simulation time is     0.     

   *** parameter d                =    8.435E-01 ***

    node    =voltage      node    =voltage      node    =voltage

 +0:vb      = 490.0000m 0:vdd     =   1.8000  0:vin+    = 956.5000m
 +0:vin-    = 843.5000m 0:vout+   =   1.1531  0:vout-   = 458.3930m
 +0:vp      = 440.6842m


 maximum nodal capacitance=   2.300E-12         on node     0:vp              

    nodal  capacitance table 

    node    =    cap      node    =    cap      node    =    cap

 +0:vb      =  33.3430f 0:vdd     =   0.      0:vin+    =   1.8606p
 +0:vin-    = 784.0322f 0:vout+   = 103.6803f 0:vout-   =   1.4061p
 +0:vp      =   2.2996p

 

 ****  voltage sources

 subckt                                              
 element  0:vdd      0:vin+     0:vin-     0:vb      
  volts      1.8000   956.5000m  843.5000m  490.0000m
  current  -19.8853u    0.         0.         0.     
  power     35.7935u    0.         0.         0.     

     total voltage source power dissipation=   35.7935u       watts



 **** resistors

 subckt                        
 element  0:r1       0:r0      
  r value  100.0000k  100.0000k
  v drop     1.3416   646.9194m
  current   13.4161u    6.4692u
  power     17.9991u    4.1850u



 **** mosfets


 subckt                                   
 element  0:m3       0:m2       0:m1      
 model    0:n_18.1   0:n_18.1   0:n_18.1  
 region     Saturati     Cutoff     Linear
  id        19.8853u    6.4692u   13.4161u
  ibs     -3.218e-21   -2.6426f   -2.6426f
  ibd     -342.8491a   -6.9144f   -2.7487f
  vgs      490.0000m  402.8158m  515.8158m
  vds      440.6842m  712.3964m   17.7088m
  vbs        0.      -440.6842m -440.6842m
  vth      443.8288m  419.4774m  423.5037m
  vdsat     92.4084m   56.4460m  112.4455m
  vod       46.1712m  -16.6616m   92.3120m
  beta       6.4796m    9.1412m    9.1652m
  gam eff  507.4460m  518.5567m  518.5567m
  gm       349.5531u  150.9317u  133.9529u
  gds        5.9188u    1.2435u  689.0978u
  gmb       68.2670u   25.2201u   22.7135u
  cdtot     13.9953f  103.6803f    1.4061p
  cgtot     33.3430f  784.0322f    1.8606p
  cstot     40.2097f  624.1186f    1.6615p
  cbtot     29.5515f  482.9134f  533.2580f
  cgs       26.1595f  500.3451f    1.2045p
  cgd        3.6539f   30.3377f  592.3700f



 ******  
 *3.1

  ******  ac analysis tnom=  25.000 temp=  25.000 *****
x

        freq    volt db    
                   vout+   
                   vout-   
    1.00000       2.4443   
    1.02329       2.4443   
    1.04713       2.4443   
    1.07152       2.4443   
    1.09648       2.4443   
    1.12202       2.4443   
    1.14815       2.4443   
    1.17490       2.4443   
    1.20226       2.4443   
    1.23027       2.4443   
    1.25893       2.4443   
    1.28825       2.4443   
    1.31826       2.4443   
    1.34896       2.4443   
    1.38038       2.4443   
    1.41254       2.4443   
    1.44544       2.4443   
    1.47911       2.4443   
    1.51356       2.4443   
    1.54882       2.4443   
    1.58489       2.4443   
    1.62181       2.4443   
    1.65959       2.4443   
    1.69824       2.4443   
    1.73780       2.4443   
    1.77828       2.4443   
    1.81970       2.4443   
    1.86209       2.4443   
    1.90546       2.4443   
    1.94984       2.4443   
    1.99526       2.4443   
    2.04174       2.4443   
    2.08930       2.4443   
    2.13796       2.4443   
    2.18776       2.4443   
    2.23872       2.4443   
    2.29087       2.4443   
    2.34423       2.4443   
    2.39883       2.4443   
    2.45471       2.4443   
    2.51189       2.4443   
    2.57040       2.4443   
    2.63027       2.4443   
    2.69153       2.4443   
    2.75423       2.4443   
    2.81838       2.4443   
    2.88403       2.4443   
    2.95121       2.4443   
    3.01995       2.4443   
    3.09030       2.4443   
    3.16228       2.4443   
    3.23594       2.4443   
    3.31131       2.4443   
    3.38844       2.4443   
    3.46737       2.4443   
    3.54813       2.4443   
    3.63078       2.4443   
    3.71535       2.4443   
    3.80189       2.4443   
    3.89045       2.4443   
    3.98107       2.4443   
    4.07380       2.4443   
    4.16869       2.4443   
    4.26580       2.4443   
    4.36516       2.4443   
    4.46684       2.4443   
    4.57088       2.4443   
    4.67735       2.4443   
    4.78630       2.4443   
    4.89779       2.4443   
    5.01187       2.4443   
    5.12861       2.4443   
    5.24807       2.4443   
    5.37032       2.4443   
    5.49541       2.4443   
    5.62341       2.4443   
    5.75440       2.4443   
    5.88844       2.4443   
    6.02560       2.4443   
    6.16595       2.4443   
    6.30957       2.4443   
    6.45654       2.4443   
    6.60693       2.4443   
    6.76083       2.4443   
    6.91831       2.4443   
    7.07946       2.4443   
    7.24436       2.4443   
    7.41310       2.4443   
    7.58578       2.4443   
    7.76247       2.4443   
    7.94328       2.4443   
    8.12831       2.4443   
    8.31764       2.4443   
    8.51138       2.4443   
    8.70964       2.4443   
    8.91251       2.4443   
    9.12011       2.4443   
    9.33254       2.4443   
    9.54993       2.4443   
    9.77237       2.4443   
   10.00000       2.4443   
   10.23293       2.4443   
   10.47129       2.4443   
   10.71519       2.4443   
   10.96478       2.4443   
   11.22018       2.4443   
   11.48154       2.4443   
   11.74898       2.4443   
   12.02264       2.4443   
   12.30269       2.4443   
   12.58925       2.4443   
   12.88250       2.4443   
   13.18257       2.4443   
   13.48963       2.4443   
   13.80384       2.4443   
   14.12538       2.4443   
   14.45440       2.4443   
   14.79108       2.4443   
   15.13561       2.4443   
   15.48817       2.4443   
   15.84893       2.4443   
   16.21810       2.4443   
   16.59587       2.4443   
   16.98244       2.4443   
   17.37801       2.4443   
   17.78279       2.4443   
   18.19701       2.4443   
   18.62087       2.4443   
   19.05461       2.4443   
   19.49845       2.4443   
   19.95262       2.4443   
   20.41738       2.4443   
   20.89296       2.4443   
   21.37962       2.4443   
   21.87762       2.4443   
   22.38721       2.4443   
   22.90868       2.4443   
   23.44229       2.4443   
   23.98833       2.4443   
   24.54709       2.4443   
   25.11886       2.4443   
   25.70396       2.4443   
   26.30268       2.4443   
   26.91535       2.4443   
   27.54229       2.4443   
   28.18383       2.4443   
   28.84032       2.4443   
   29.51209       2.4443   
   30.19952       2.4443   
   30.90295       2.4443   
   31.62278       2.4443   
   32.35937       2.4443   
   33.11311       2.4443   
   33.88442       2.4443   
   34.67369       2.4443   
   35.48134       2.4443   
   36.30781       2.4443   
   37.15352       2.4443   
   38.01894       2.4443   
   38.90451       2.4443   
   39.81072       2.4443   
   40.73803       2.4443   
   41.68694       2.4443   
   42.65795       2.4443   
   43.65158       2.4443   
   44.66836       2.4443   
   45.70882       2.4443   
   46.77351       2.4443   
   47.86301       2.4443   
   48.97788       2.4443   
   50.11872       2.4443   
   51.28614       2.4443   
   52.48075       2.4443   
   53.70318       2.4443   
   54.95409       2.4443   
   56.23413       2.4443   
   57.54399       2.4443   
   58.88437       2.4443   
   60.25596       2.4443   
   61.65950       2.4443   
   63.09573       2.4443   
   64.56542       2.4443   
   66.06934       2.4443   
   67.60830       2.4443   
   69.18310       2.4443   
   70.79458       2.4443   
   72.44360       2.4443   
   74.13102       2.4443   
   75.85776       2.4443   
   77.62471       2.4443   
   79.43282       2.4443   
   81.28305       2.4443   
   83.17638       2.4443   
   85.11380       2.4443   
   87.09636       2.4443   
   89.12509       2.4443   
   91.20108       2.4443   
   93.32543       2.4443   
   95.49926       2.4443   
   97.72372       2.4443   
  100.00000       2.4443   
  102.32930       2.4443   
  104.71285       2.4443   
  107.15193       2.4443   
  109.64782       2.4443   
  112.20185       2.4443   
  114.81536       2.4443   
  117.48976       2.4443   
  120.22644       2.4443   
  123.02688       2.4443   
  125.89254       2.4443   
  128.82496       2.4443   
  131.82567       2.4443   
  134.89629       2.4443   
  138.03843       2.4443   
  141.25375       2.4443   
  144.54398       2.4443   
  147.91084       2.4443   
  151.35612       2.4443   
  154.88166       2.4443   
  158.48932       2.4443   
  162.18101       2.4443   
  165.95869       2.4443   
  169.82437       2.4443   
  173.78008       2.4443   
  177.82794       2.4443   
  181.97009       2.4443   
  186.20871       2.4443   
  190.54607       2.4443   
  194.98446       2.4443   
  199.52623       2.4443   
  204.17379       2.4443   
  208.92961       2.4443   
  213.79621       2.4443   
  218.77616       2.4443   
  223.87211       2.4443   
  229.08677       2.4443   
  234.42288       2.4443   
  239.88329       2.4443   
  245.47089       2.4443   
  251.18864       2.4443   
  257.03958       2.4443   
  263.02680       2.4443   
  269.15348       2.4443   
  275.42287       2.4443   
  281.83829       2.4443   
  288.40315       2.4443   
  295.12092       2.4443   
  301.99517       2.4443   
  309.02954       2.4443   
  316.22777       2.4443   
  323.59366       2.4443   
  331.13112       2.4443   
  338.84416       2.4443   
  346.73685       2.4443   
  354.81339       2.4443   
  363.07805       2.4443   
  371.53523       2.4443   
  380.18940       2.4443   
  389.04514       2.4443   
  398.10717       2.4443   
  407.38028       2.4443   
  416.86938       2.4443   
  426.57952       2.4443   
  436.51583       2.4443   
  446.68359       2.4443   
  457.08819       2.4443   
  467.73514       2.4443   
  478.63009       2.4443   
  489.77882       2.4443   
  501.18723       2.4443   
  512.86138       2.4443   
  524.80746       2.4443   
  537.03180       2.4443   
  549.54087       2.4443   
  562.34133       2.4443   
  575.43994       2.4443   
  588.84366       2.4443   
  602.55959       2.4443   
  616.59500       2.4443   
  630.95734       2.4443   
  645.65423       2.4443   
  660.69345       2.4443   
  676.08298       2.4443   
  691.83097       2.4443   
  707.94578       2.4443   
  724.43596       2.4443   
  741.31024       2.4443   
  758.57758       2.4443   
  776.24712       2.4443   
  794.32823       2.4443   
  812.83052       2.4443   
  831.76377       2.4443   
  851.13804       2.4443   
  870.96359       2.4443   
  891.25094       2.4443   
  912.01084       2.4443   
  933.25430       2.4443   
  954.99259       2.4443   
  977.23722       2.4443   
    1.00000k      2.4443   
    1.02329k      2.4443   
    1.04713k      2.4443   
    1.07152k      2.4443   
    1.09648k      2.4443   
    1.12202k      2.4443   
    1.14815k      2.4443   
    1.17490k      2.4443   
    1.20226k      2.4443   
    1.23027k      2.4443   
    1.25893k      2.4443   
    1.28825k      2.4443   
    1.31826k      2.4443   
    1.34896k      2.4443   
    1.38038k      2.4443   
    1.41254k      2.4443   
    1.44544k      2.4443   
    1.47911k      2.4443   
    1.51356k      2.4443   
    1.54882k      2.4443   
    1.58489k      2.4443   
    1.62181k      2.4443   
    1.65959k      2.4443   
    1.69824k      2.4443   
    1.73780k      2.4443   
    1.77828k      2.4443   
    1.81970k      2.4443   
    1.86209k      2.4443   
    1.90546k      2.4443   
    1.94984k      2.4443   
    1.99526k      2.4443   
    2.04174k      2.4443   
    2.08930k      2.4443   
    2.13796k      2.4443   
    2.18776k      2.4443   
    2.23872k      2.4443   
    2.29087k      2.4443   
    2.34423k      2.4443   
    2.39883k      2.4443   
    2.45471k      2.4443   
    2.51189k      2.4443   
    2.57040k      2.4443   
    2.63027k      2.4443   
    2.69153k      2.4443   
    2.75423k      2.4443   
    2.81838k      2.4443   
    2.88403k      2.4443   
    2.95121k      2.4443   
    3.01995k      2.4443   
    3.09030k      2.4443   
    3.16228k      2.4443   
    3.23594k      2.4443   
    3.31131k      2.4443   
    3.38844k      2.4443   
    3.46737k      2.4443   
    3.54813k      2.4443   
    3.63078k      2.4443   
    3.71535k      2.4443   
    3.80189k      2.4443   
    3.89045k      2.4443   
    3.98107k      2.4443   
    4.07380k      2.4443   
    4.16869k      2.4443   
    4.26580k      2.4443   
    4.36516k      2.4443   
    4.46684k      2.4443   
    4.57088k      2.4443   
    4.67735k      2.4443   
    4.78630k      2.4443   
    4.89779k      2.4443   
    5.01187k      2.4443   
    5.12861k      2.4443   
    5.24807k      2.4444   
    5.37032k      2.4444   
    5.49541k      2.4444   
    5.62341k      2.4444   
    5.75440k      2.4444   
    5.88844k      2.4444   
    6.02560k      2.4444   
    6.16595k      2.4444   
    6.30957k      2.4444   
    6.45654k      2.4444   
    6.60693k      2.4444   
    6.76083k      2.4444   
    6.91831k      2.4444   
    7.07946k      2.4444   
    7.24436k      2.4444   
    7.41310k      2.4444   
    7.58578k      2.4445   
    7.76247k      2.4445   
    7.94328k      2.4445   
    8.12831k      2.4445   
    8.31764k      2.4445   
    8.51138k      2.4445   
    8.70964k      2.4445   
    8.91251k      2.4445   
    9.12011k      2.4445   
    9.33254k      2.4446   
    9.54993k      2.4446   
    9.77237k      2.4446   
   10.00000k      2.4446   
   10.23293k      2.4446   
   10.47129k      2.4446   
   10.71519k      2.4446   
   10.96478k      2.4447   
   11.22018k      2.4447   
   11.48154k      2.4447   
   11.74898k      2.4447   
   12.02264k      2.4447   
   12.30269k      2.4448   
   12.58925k      2.4448   
   12.88250k      2.4448   
   13.18257k      2.4448   
   13.48963k      2.4449   
   13.80384k      2.4449   
   14.12538k      2.4449   
   14.45440k      2.4450   
   14.79108k      2.4450   
   15.13561k      2.4450   
   15.48817k      2.4451   
   15.84893k      2.4451   
   16.21810k      2.4451   
   16.59587k      2.4452   
   16.98244k      2.4452   
   17.37801k      2.4453   
   17.78279k      2.4453   
   18.19701k      2.4454   
   18.62087k      2.4454   
   19.05461k      2.4455   
   19.49845k      2.4455   
   19.95262k      2.4456   
   20.41738k      2.4457   
   20.89296k      2.4457   
   21.37962k      2.4458   
   21.87762k      2.4459   
   22.38721k      2.4459   
   22.90868k      2.4460   
   23.44229k      2.4461   
   23.98833k      2.4462   
   24.54709k      2.4463   
   25.11886k      2.4464   
   25.70396k      2.4465   
   26.30268k      2.4466   
   26.91535k      2.4467   
   27.54229k      2.4468   
   28.18383k      2.4469   
   28.84032k      2.4471   
   29.51209k      2.4472   
   30.19952k      2.4473   
   30.90295k      2.4475   
   31.62278k      2.4476   
   32.35937k      2.4478   
   33.11311k      2.4479   
   33.88442k      2.4481   
   34.67369k      2.4483   
   35.48134k      2.4485   
   36.30781k      2.4487   
   37.15352k      2.4489   
   38.01894k      2.4491   
   38.90451k      2.4493   
   39.81072k      2.4496   
   40.73803k      2.4498   
   41.68694k      2.4501   
   42.65795k      2.4504   
   43.65158k      2.4507   
   44.66836k      2.4510   
   45.70882k      2.4513   
   46.77351k      2.4516   
   47.86301k      2.4520   
   48.97788k      2.4523   
   50.11872k      2.4527   
   51.28614k      2.4531   
   52.48075k      2.4535   
   53.70318k      2.4540   
