 ****** HSPICE -- L-2016.06-SP2 linux64 (Nov 23 2016) ******                    
  Copyright (c) 1986 - 2018 by Synopsys, Inc. All Rights Reserved.              
  This software and the associated documentation are proprietary
  to Synopsys, Inc. This software may only be used in accordance
  with the terms and conditions of a written license agreement with
  Synopsys, Inc. All other use, reproduction, or distribution of
  this software is strictly prohibited.
  Input File: hw2_2.sp                                                          
  Command line options: /usr/cad/synopsys/hspice/2016.06-sp2/hspice/linux64/hspice -i hw2_2.sp -o hw2_2.lis
 lic:  
 lic: FLEXlm: v11.2.1 
 lic: USER:   u105060012           HOSTNAME: ws40 
 lic: HOSTID: "6eae8b50b631"       PID:      3522 
 lic: Using FLEXlm license file: 
 lic: 26585@lscic.cic.org.tw 
 lic: Checkout 1 hspice 
 lic: License/Maintenance for hspice will expire on 14-may-2019/2018.09 
 lic: 39(in_use)/150(total) FLOATING license(s) on SERVER 26585@lscic.cic.org.tw 
 lic:   
 

  
      
 **info** set option symb=1 internally to help for convergence.
 *****************************************************************
 ******  option summary
 ******
 runlvl  = 3         bypass  = 2.0000    
 ******
 hw2_2

 ****** dc transfer curves tnom=  25.000 temp=  25.000 ******
 ******
 hw2_2

 ****** dc transfer curves tnom=  25.000 temp=  25.000 ******
 vil= 773.2363m
 vih=   1.0254 
 vol=  89.0253m
 voh=   1.6659 
 nml= 684.2110m
 nmh= 640.4606m
 **info** dc convergence successful at Newton-Raphson method 
1****** HSPICE -- L-2016.06-SP2 linux64 (Nov 23 2016) ******                    
 ******  
 hw2_2

 ****** operating point information tnom=  25.000 temp=  25.000 ******
 ****** operating point status is all       simulation time is     0.     
    node    =voltage      node    =voltage      node    =voltage

 +0:in      = 900.0000m 0:out     = 896.4976m 0:p1      =   1.7155 
 +0:p2      =   1.6016  0:vdd     =   1.8000 


 **** voltage sources

 subckt                        
 element  0:vdd      0:vin     
  volts      1.8000   900.0000m
  current -616.0915u    0.     
  power      1.1090m    0.     

     total voltage source power dissipation=    1.1090m       watts




 **** mosfets


 subckt                                                                    
 element  0:mpa      0:mpb      0:mpc      0:mna      0:mnb      0:mnc     
 model    0:p_18.1   0:p_18.1   0:p_18.1   0:n_18.1   0:n_18.1   0:n_18.1  
 region       Linear     Linear   Saturati   Saturati   Saturati   Saturati
  id      -616.0915u -616.0915u -616.0915u  205.3638u  205.3638u  205.3638u
  ibs      5.715e-20  5.715e-20  5.715e-20 -4.740e-20 -4.740e-20 -4.740e-20
  ibd      197.3960a  266.2220a    1.6476f -179.0155a -179.0155a -179.0155a
  vgs     -900.0000m -815.5068m -701.5619m  900.0000m  900.0000m  900.0000m
  vds      -84.4932m -113.9449m -705.0643m  896.4976m  896.4976m  896.4976m
  vbs        0.         0.         0.         0.         0.         0.     
  vth     -520.0090m -519.9462m -518.6849m  501.3884m  501.3884m  501.3884m
  vdsat   -376.3219m -312.1462m -220.9246m  285.0265m  285.0265m  285.0265m
  vod     -379.9910m -295.5606m -182.8771m  398.6116m  398.6116m  398.6116m
  beta      25.6827m   26.1428m   26.7860m    3.1312m    3.1312m    3.1312m
  gam eff  557.0845m  557.0845m  557.0845m  507.4526m  507.4526m  507.4526m
  gm         1.5073m    2.1850m    5.1558m  748.5445u  748.5445u  748.5445u
  gds        6.3519m    4.2069m  160.7129u   38.1227u   38.1227u   38.1227u
  gmb      522.3559u  719.7508u    1.5756m  108.5854u  108.5854u  108.5854u
  cdtot    139.2964f  118.4945f   59.5013f    2.4128f    2.4128f    2.4128f
  cgtot    118.2243f  115.1175f  101.9157f    3.5027f    3.5027f    3.5027f
  cstot    149.3187f  145.6981f  141.2629f    5.0363f    5.0363f    5.0363f
  cbtot    126.7262f  125.5895f  114.7248f    4.5143f    4.5143f    4.5143f
  cgs       68.3339f   72.9627f   77.3922f    2.5600f    2.5600f    2.5600f
  cgd       49.0581f   40.3664f   18.7216f  651.0025a  651.0025a  651.0025a




          ***** job concluded
 ******  
 hw2_2

 ****** job statistics summary tnom=  25.000 temp=  25.000 ******
  
  
 ******  Machine Information  ******
 CPU:
 model name	: Intel(R) Xeon(R) CPU E5-2620 0 @ 2.00GHz
 cpu MHz	: 2001.000
  
 OS:
 Linux version 2.6.18-371.9.1.el5 (mockbuild@builder17.centos.org) (gcc version 4.1.2 20080704 (Red Hat 4.1.2-54)) #1 SMP Tue Jun 10 17:49:56 EDT 2014


  ******  HSPICE Threads Information  ******

  Command Line Threads Count :     1
  Available CPU Count        :    12
  Actual Threads Count       :     1


  ******  Circuit Statistics  ******
  # nodes       =      18 # elements   =       8
  # resistors   =       0 # capacitors =       0 # inductors   =       0
  # mutual_inds =       0 # vccs       =       0 # vcvs        =       0
  # cccs        =       0 # ccvs       =       0 # volt_srcs   =       2
  # curr_srcs   =       0 # diodes     =       0 # bjts        =       0
  # jfets       =       0 # mosfets    =       6 # U elements  =       0
  # T elements  =       0 # W elements =       0 # B elements  =       0
  # S elements  =       0 # P elements =       0 # va device   =       0
  # vector_srcs =       0 # N elements =       0


  ******  Runtime Statistics (seconds)  ******

  analysis           time    # points   tot. iter  conv.iter
  op point           0.00           1          12
  dc sweep           2.31        7951       16320
  readin             0.01
  errchk             0.01
  setup              0.00
  output             0.00


           peak memory used        201.30 megabytes
           total cpu time            2.33 seconds
           total elapsed time        3.47 seconds
           job started at     18:13:49 10/31/2018
           job ended   at     18:13:52 10/31/2018


 lic: Release hspice token(s) 
 lic: total license checkout elapse time:        0.97(s)
